/cix_pulse<0> (vgsp_il=0.4) X,/cix_pulse<0> (vgsp_il=0.4) Y,/cix_pulse<0> (vgsp_il=0.4519324) X,/cix_pulse<0> (vgsp_il=0.4519324) Y,/cix_pulse<0> (vgsp_il=0.5106072) X,/cix_pulse<0> (vgsp_il=0.5106072) Y,/cix_pulse<0> (vgsp_il=0.5768998) X,/cix_pulse<0> (vgsp_il=0.5768998) Y,/cix_pulse<0> (vgsp_il=0.6517993) X,/cix_pulse<0> (vgsp_il=0.6517993) Y,/cix_pulse<0> (vgsp_il=0.736423) X,/cix_pulse<0> (vgsp_il=0.736423) Y,/cix_pulse<0> (vgsp_il=0.8320335) X,/cix_pulse<0> (vgsp_il=0.8320335) Y,/cix_pulse<0> (vgsp_il=0.9400572) X,/cix_pulse<0> (vgsp_il=0.9400572) Y,/cix_pulse<0> (vgsp_il=1.062106) X,/cix_pulse<0> (vgsp_il=1.062106) Y,/cix_pulse<0> (vgsp_il=1.2) X,/cix_pulse<0> (vgsp_il=1.2) Y
0,1.03327649525499e-06,0,1.033276683347725e-06,0,1.033275692281031e-06,0,1.033271276174659e-06,0,1.033246155476941e-06,0,1.033111522017581e-06,0,1.03285005159817e-06,0,1.032669036275867e-06,0,1.032647191272373e-06,0,1.032646802649865e-06
0.001,1.033280427550618e-06,0.001,1.033276683674681e-06,0.001,1.033275869281161e-06,0.001,1.033271276173397e-06,0.001,1.033246244049534e-06,0.001,1.033111853187311e-06,0.001,1.032850078741745e-06,0.001,1.032669458523089e-06,0.001,1.032647252168029e-06,0.001,1.032646863609132e-06
0.003,1.033276998056156e-06,0.003,1.033276683592833e-06,0.003,1.03327571887545e-06,0.003,1.033271276146156e-06,0.003,1.033246129790608e-06,0.003,1.033111637333687e-06,0.003,1.03285007804588e-06,0.003,1.032669291753931e-06,0.003,1.032647200417943e-06,0.003,1.032646810270063e-06
0.006,1.03327649246331e-06,0.006,1.033276683628897e-06,0.006,1.033275711137567e-06,0.006,1.033271276172344e-06,0.006,1.033246094131354e-06,0.006,1.033111610556835e-06,0.006,1.032850077029649e-06,0.006,1.03266913875668e-06,0.006,1.032647198976272e-06,0.006,1.032646808745774e-06
0.006000000208854167,1.033277144956762e-06,0.006000000208794317,1.033276683617704e-06,0.006000000208741345,1.033275712410086e-06,0.006000000208694459,1.033271276173964e-06,0.006000000208652961,1.03324609342843e-06,0.006000000208616232,1.0331116139262e-06,0.006000000208583724,1.032850077027235e-06,0.006000000208554951,1.032669136185138e-06,0.006000000208529485,1.032647281703625e-06,0.006000000208506944,1.032646898183666e-06
0.0060000006265625,1.033278478980175e-06,0.006000000626382951,1.033276683572688e-06,0.006000000626224034,1.033275714994765e-06,0.006000000626083378,1.033271276181464e-06,0.006000000625958884,1.033246092404621e-06,0.006000000625848696,1.033111620239561e-06,0.006000000625751172,1.032850077024436e-06,0.006000000625664853,1.032669133058512e-06,0.006000000625588454,1.032647441829451e-06,0.006000000625520833,1.032647071235577e-06
0.006000001461979166,1.033281478368932e-06,0.006000001461560218,1.033276683606483e-06,0.006000001461189412,1.033275720763659e-06,0.006000001460861215,1.033271276188388e-06,0.006000001460570729,1.033246091979667e-06,0.006000001460313624,1.033111631808206e-06,0.006000001460086069,1.032850077032958e-06,0.006000001459884658,1.03266913176376e-06,0.006000001459706391,1.032647676279305e-06,0.006000001459548611,1.032647324398787e-06
0.006000002176273923,1.033283843127498e-06,0.006000002175054484,1.033276683570167e-06,0.006000002173974311,1.033275725291354e-06,0.006000002173017579,1.0332712761356e-06,0.006000002172170235,1.033246092439061e-06,0.006000002171419822,1.033111639679377e-06,0.006000002170755289,1.032850076954474e-06,0.006000002170166814,1.032669133077637e-06,0.006000002169645706,1.032647800774643e-06,0.006000002169184255,1.032647458637966e-06
0.006000003096605545,1.033286110606094e-06,0.006000003094193149,1.033276682832634e-06,0.006000003092055955,1.033275728901195e-06,0.006000003090162758,1.033271275438753e-06,0.006000003088485837,1.033246092611434e-06,0.006000003087000602,1.033111646004064e-06,0.006000003085685231,1.032850076057731e-06,0.006000003084520333,1.032669134399754e-06,0.006000003083488736,1.032647894533139e-06,0.006000003082575203,1.032647559615863e-06
0.006000004365631513,1.033287912172362e-06,0.006000004361446544,1.033276669175338e-06,0.006000004357738886,1.033275718823716e-06,0.006000004354454431,1.033271262507723e-06,0.006000004351545118,1.033246080545418e-06,0.006000004348968301,1.033111637300576e-06,0.00600000434668613,1.032850059971063e-06,0.006000004344664987,1.032669118515634e-06,0.006000004342875087,1.032647937821206e-06,0.006000004341289999,1.032647604633945e-06
0.006000006087613326,1.03328876361914e-06,0.00600000608086988,1.03327649131061e-06,0.006000006074895625,1.033275544231066e-06,0.006000006069603346,1.033271093764792e-06,0.006000006064915584,1.033245912442193e-06,0.006000006060763598,1.033111455300324e-06,0.006000006057086386,1.032849850399968e-06,0.006000006053829782,1.032668882963038e-06,0.006000006050945782,1.032647697745034e-06,0.006000006048391799,1.032647323724242e-06
0.006000008348117652,1.0332877157276e-06,0.006000008337863167,1.033275084880012e-06,0.006000008328778718,1.033274147921177e-06,0.006000008320731559,1.033269757986259e-06,0.006000008313603809,1.033244576767148e-06,0.006000008307290867,1.033109989985257e-06,0.006000008301699917,1.032848188555919e-06,0.006000008296748563,1.032667002689424e-06,0.006000008292363781,1.032645554593073e-06,0.006000008288480797,1.032644836926637e-06
0.00600001121184909,1.03328106071751e-06,0.006000011196903908,1.033268246372612e-06,0.006000011183664729,1.033267350716316e-06,0.006000011171937825,1.033263253889713e-06,0.006000011161551205,1.033238067694311e-06,0.006000011152352273,1.033102841124324e-06,0.00600001114420565,1.032840081059294e-06,0.006000011136991184,1.032657821596273e-06,0.006000011130602392,1.032635050848473e-06,0.006000011124944835,1.032632646747921e-06
0.006000014755840866,1.033259622652055e-06,0.00600001473479712,1.033246178210229e-06,0.006000014716156744,1.03324539824899e-06,0.006000014699646544,1.033242232359669e-06,0.006000014685024039,1.033217014616868e-06,0.006000014672074133,1.033079702990203e-06,0.006000014660606035,1.032813823715576e-06,0.006000014650450448,1.032628068225765e-06,0.006000014641457354,1.032600994990826e-06,0.006000014633493716,1.032593105754775e-06
0.006000019071863813,1.033210631068903e-06,0.006000019043037971,1.033195538985034e-06,0.006000019017506,1.033194983858244e-06,0.006000018994893087,1.033193917568437e-06,0.006000018974866642,1.033168589976816e-06,0.006000018957131695,1.033026445768104e-06,0.006000018941426658,1.032753347839834e-06,0.006000018927519465,1.032559492927323e-06,0.00600001891520449,1.032522449833804e-06,0.006000018904299418,1.032501871088366e-06
0.006000024263318298,1.033126348690385e-06,0.006000024224806,1.033108280003387e-06,0.006000024190696587,1.033108043281139e-06,0.006000024160488552,1.033110529112651e-06,0.006000024133736985,1.033084944834979e-06,0.006000024110047377,1.032934389236696e-06,0.00600002408906993,1.032648745280283e-06,0.006000024070494389,1.03244078908811e-06,0.006000024054045867,1.032386364785877e-06,0.006000024039480677,1.032343737260439e-06
0.006000030436023085,1.033012381938115e-06,0.006000030385657411,1.032990192469806e-06,0.006000030341052118,1.032990302685008e-06,0.006000030301550515,1.032997506772959e-06,0.006000030266570111,1.032971487325769e-06,0.006000030235594503,1.032809442609534e-06,0.006000030208165913,1.03250668052619e-06,0.006000030183878375,1.032279429777542e-06,0.006000030162372209,1.032201162625522e-06,0.006000030143328598,1.03212845535594e-06
0.006000037680882176,1.032886352050276e-06,0.006000037616467559,1.032859546752354e-06,0.006000037559422015,1.032859960996982e-06,0.006000037508904985,1.032872287683769e-06,0.006000037464170785,1.032845708854348e-06,0.006000037424558535,1.03267086170398e-06,0.006000037389482643,1.032349021674609e-06,0.006000037358423789,1.032100166158838e-06,0.006000037330921781,1.031995082935197e-06,0.006000037306568748,1.031888853821745e-06
0.006000046044824086,1.032767935826262e-06,0.006000045964400513,1.032736782952081e-06,0.006000045893178882,1.032737415174865e-06,0.006000045830109141,1.032754463225856e-06,0.006000045774258963,1.032727344088263e-06,0.00600004572480271,1.032540444179621e-06,0.0060000456810098,1.032200580657761e-06,0.006000045642232072,1.031931150889713e-06,0.006000045607894723,1.031800336105654e-06,0.006000045577488365,1.031662439394572e-06
0.006000055527615488,1.032669539814947e-06,0.006000055429406639,1.032634809621649e-06,0.006000055342439038,1.032635548078483e-06,0.006000055265407794,1.032656432634358e-06,0.006000055197115928,1.032628983793182e-06,0.00600005513664016,1.032432180517923e-06,0.006000055083088976,1.03207732926456e-06,0.006000055035670571,1.031790554902595e-06,0.006000054993681405,1.031637770389276e-06,0.006000054956498189,1.031473549538824e-06
0.006000066146528272,1.032594058767332e-06,0.006000066027834846,1.032556642519839e-06,0.006000065922739852,1.032557338225424e-06,0.006000065829663592,1.032581072012848e-06,0.006000065747154246,1.032553695427708e-06,0.006000065674084858,1.03234959595525e-06,0.00600006560938215,1.031983337825163e-06,0.00600006555209092,1.031683051322059e-06,0.006000065501359357,1.031512795809408e-06,0.006000065456433297,1.03132857307324e-06
0.006000078054402318,1.032538322289498e-06,0.006000077910912136,1.032498964052065e-06,0.006000077783886614,1.03249939622492e-06,0.006000077671410539,1.03252510541303e-06,0.006000077571718923,1.032498383251841e-06,0.006000077483428636,1.032289434480795e-06,0.006000077405249431,1.031914944994576e-06,0.00600007733602954,1.031604513781044e-06,0.006000077274736317,1.03142071429192e-06,0.006000077220456402,1.031222131350568e-06
0.006000089027201159,1.032504179837747e-06,0.006000088955456067,1.032463304117558e-06,0.006000088891943306,1.032462945586755e-06,0.00600008883570527,1.032489507366705e-06,0.006000090987224496,1.032458213997027e-06,0.006000090879660852,1.032246558345896e-06,0.006000090784419458,1.031866336567656e-06,0.006000090700100624,1.03154834402482e-06,0.006000090625440705,1.031353952500742e-06,0.006000090559323502,1.031145502533405e-06
0.00600009451360058,1.032491177815195e-06,0.006000094477728033,1.032449540817824e-06,0.006000094445971653,1.032448437138141e-06,0.006000094417852635,1.032475185475296e-06,0.006000095493612248,1.032448017272584e-06,0.006000095439830426,1.032236710152281e-06,0.006000095392209729,1.031855283306406e-06,0.006000095350050312,1.031535404019816e-06,0.006000095312720352,1.031338233977439e-06,0.006000095279661751,1.031127885438263e-06
0.0060001,1.03248069280137e-06,0.0060001,1.032438642411311e-06,0.0060001,1.032437169991689e-06,0.0060001,1.032464091846147e-06,0.0060001,1.032440041980831e-06,0.0060001,1.032228372484897e-06,0.0060001,1.031845781361519e-06,0.0060001,1.031524185417246e-06,0.006000099999999999,1.031324428719295e-06,0.0060001,1.031112128175249e-06
0.006000100835416666,1.032479289648555e-06,0.006000100835177266,1.03243719596439e-06,0.006000100834965377,1.032435674745998e-06,0.006000100834777836,1.032462610355217e-06,0.006000100834611845,1.032438846163692e-06,0.006000100834464929,1.032227014468662e-06,0.006000100834334895,1.031844225215996e-06,0.006000100834219804,1.03152235141833e-06,0.006000100834117937,1.031322166496445e-06,0.006000100834027777,1.031109519436558e-06
0.006000101720624255,1.032477568525315e-06,0.006000101721253983,1.032435311673212e-06,0.006000101721801452,1.032433562221158e-06,0.006000101722278648,1.032460484761977e-06,0.006000101664935413,1.032437365971237e-06,0.006000101667265211,1.032225684282807e-06,0.006000101669306737,1.031842768761745e-06,0.006000101671097571,1.03152065364556e-06,0.006000101672670529,1.031320088503746e-06,0.006000101674053713,1.031107266595464e-06
0.006000102901855588,1.032475545604875e-06,0.006000102905829585,1.032433180457659e-06,0.006000102909321295,1.032431294512003e-06,0.006000102912393022,1.032458237251327e-06,0.006000102711089797,1.032435665550023e-06,0.006000102720026057,1.032224042279187e-06,0.006000102727890531,1.03184093502447e-06,0.006000102734815728,1.031518496756355e-06,0.006000102740918817,1.031317425996537e-06,0.006000102746301353,1.031104302992023e-06
0.006000104355809183,1.032473352332661e-06,0.006000104358684783,1.032430957975591e-06,0.006000104361199633,1.032429050752216e-06,0.006000104363402704,1.032456047616188e-06,0.006000104143268694,1.032433592131938e-06,0.00600010415198923,1.032221905478518e-06,0.006000104159663739,1.031838524921175e-06,0.006000104166475807,1.031515658131422e-06,0.006000104172441504,1.031313913035408e-06,0.006000104177703908,1.031100329267915e-06
0.006000106013852493,1.032471143414467e-06,0.006000106015377891,1.032428728584078e-06,0.006000106016689297,1.032426797949858e-06,0.006000106017820696,1.032453841349964e-06,0.006000105763577953,1.032431503890125e-06,0.00600010577253188,1.032219752176515e-06,0.006000105780402758,1.031836095167206e-06,0.006000105787398842,1.031512782878074e-06,0.006000105793508721,1.03131032249154e-06,0.006000105798894602,1.031096273226217e-06
0.006000108111547108,1.032469381458053e-06,0.006000108111532305,1.032426938202495e-06,0.006000108111466414,1.032424905598814e-06,0.006000108111368029,1.032451944066219e-06,0.006000107798665702,1.032429736618105e-06,0.006000107808605298,1.032218085087636e-06,0.00600010781732573,1.031834247651991e-06,0.006000107825067929,1.031510551550315e-06,0.006000107831816299,1.031307408266606e-06,0.006000107837757385,1.031093079776066e-06
0.006000110788179353,1.032471225594418e-06,0.006000110786011694,1.032428861665097e-06,0.006000110784022674,1.032426624775688e-06,0.0060001107822087,1.032453468548691e-06,0.006000110393215514,1.032430981854338e-06,0.006000110404276168,1.032219930167626e-06,0.006000110413964433,1.031836447486345e-06,0.006000110422557848,1.031512905898159e-06,0.00600011043003553,1.031309681557223e-06,0.006000110436611548,1.031096034381567e-06
0.006000114160455488,1.032484983687395e-06,0.006000114155394172,1.032443137983997e-06,0.006000114150822397,1.032440600946457e-06,0.006000114146706037,1.032466718809894e-06,0.006000113658650623,1.032442755738898e-06,0.006000113671050481,1.032233576051104e-06,0.006000113681896379,1.031852141103454e-06,0.006000113691509748,1.031530586037406e-06,0.006000113699861841,1.031329458465206e-06,0.00600011370719994,1.031119479130106e-06
0.006000118326878348,1.032523473548366e-06,0.006000118317700477,1.032483090835099e-06,0.00600011830946014,1.032480170914318e-06,0.006000118302077712,1.032504506822347e-06,0.006000117699566421,1.032477510550221e-06,0.006000117713016678,1.032272702311591e-06,0.006000117724760625,1.03189688437125e-06,0.00600011773516792,1.031581256697078e-06,0.006000117744187275,1.031386989101087e-06,0.006000117752102528,1.031186950177007e-06
0.006000123373643509,1.032596217456637e-06,0.00600012335880539,1.032558623683567e-06,0.006000123345526824,1.032555263627496e-06,0.006000123333663439,1.032576376547425e-06,0.00600012260372228,1.032545776471159e-06,0.006000122617673752,1.03234881359635e-06,0.006000122629824969,1.031983714958651e-06,0.006000122640593304,1.031679693872269e-06,0.006000122649890374,1.031499200232359e-06,0.006000122658036,1.031318064723821e-06
0.006000129394968574,1.032700251909295e-06,0.0060001293726848,1.03266668542941e-06,0.00600012935278415,1.032662881150553e-06,0.006000129335035156,1.032679466736062e-06,0.006000128464270691,1.032646546080967e-06,0.006000128478042733,1.032460678744171e-06,0.006000128489993417,1.032111161628863e-06,0.00600012850058433,1.031824192353288e-06,0.006000128509676714,1.031664135908514e-06,0.006000128517623391,1.031510452523975e-06
0.006000136482330758,1.032819575018398e-06,0.006000136450660781,1.032790685492949e-06,0.006000136422417185,1.032786500823505e-06,0.0060001363972568,1.032797927801245e-06,0.006000135374319079,1.032765214454871e-06,0.006000135387084765,1.032592118380548e-06,0.00600013539809784,1.032260772504864e-06,0.006000135407857624,1.031993797431271e-06,0.006000135416161644,1.031857815318535e-06,0.006000135423390398,1.031736152703374e-06
0.006000144696144767,1.0329341798312e-06,0.006000144653154924,1.032909854758658e-06,0.0060001446148547,1.032905404978796e-06,0.006000144580764173,1.032911869490834e-06,0.006000143400073534,1.032881656595721e-06,0.006000143410758304,1.032720930752653e-06,0.006000143419879722,1.032407285456009e-06,0.00600014342796183,1.032159858121493e-06,0.006000143434725816,1.03204746964783e-06,0.006000143440569413,1.031957031752294e-06
0.006000154044474376,1.033029977514292e-06,0.00600015398825046,1.033009545674352e-06,0.006000153938198888,1.033004964774146e-06,0.006000153893677473,1.033007238455154e-06,0.006000152553869461,1.032980562377869e-06,0.006000152561298856,1.032830263113425e-06,0.006000152567487148,1.032531548983391e-06,0.006000152572967931,1.032300673072395e-06,0.006000152577372964,1.032208293747304e-06,0.006000152581104774,1.032144254884309e-06
0.006000164534551477,1.033102435474139e-06,0.006000164462943275,1.03308502455937e-06,0.006000164399238887,1.033080441506349e-06,0.006000164342604505,1.033079482627063e-06,0.006000162837857956,1.033056175440447e-06,0.006000162840869006,1.032913801598959e-06,0.006000162843091424,1.032626398211767e-06,0.006000162845055472,1.032408131140577e-06,0.006000162846288465,1.032331022447615e-06,0.006000162847186272,1.032287070533157e-06
0.006000176292847709,1.033153802855248e-06,0.006000176202634597,1.033138601166976e-06,0.006000176122428182,1.033134128306137e-06,0.006000176051159972,1.033130811445285e-06,0.006000174352849045,1.033110109990146e-06,0.006000174350362121,1.032973355611166e-06,0.00600017434765336,1.032693896929788e-06,0.006000174345246029,1.032484575596185e-06,0.00600017434254121,1.032418335629697e-06,0.006000174339922714,1.032388619066537e-06
0.006000189619877771,1.033188510814674e-06,0.006000189506263581,1.03317485453093e-06,0.006000189405312234,1.033170584530753e-06,0.006000189315656749,1.033165618315681e-06,0.006000187371005885,1.033146734806528e-06,0.006000187361748479,1.033013773178081e-06,0.006000187352965227,1.032739555065711e-06,0.00600018734517537,1.032536248809447e-06,0.006000187337621072,1.032477364797282e-06,0.006000187330672637,1.032457214909804e-06
0.00600020499524915,1.033210739450885e-06,0.006000204851130036,1.033198101783273e-06,0.006000204723151864,1.033194107394442e-06,0.006000204609554168,1.033188047559067e-06,0.006000202338971679,1.033170342590661e-06,0.006000202321124703,1.033039817947854e-06,0.006000202304631845,1.032768778643601e-06,0.006000202290014032,1.032569271936568e-06,0.006000202276306352,1.032515101579775e-06,0.006000202263864548,1.032501005476757e-06
0.006000223135430771,1.033223961516498e-06,0.006000222950047482,1.033211924433958e-06,0.006000222785534655,1.033208260078008e-06,0.006000222639592831,1.033201542136658e-06,0.006000219924571865,1.03318451144021e-06,0.006000219895352108,1.033055456493292e-06,0.006000219868649318,1.032786055349396e-06,0.006000219844993894,1.032588721574922e-06,0.006000219823141169,1.032537343491252e-06,0.006000219803429815,1.032526743044026e-06
0.006000245132703636,1.03323106791639e-06,0.006000244889011037,1.033219299181533e-06,0.006000244672913844,1.033216001713606e-06,0.006000244481340134,1.033208969867359e-06,0.006000241138028759,1.033192204475969e-06,0.006000241092977851,1.033063966478766e-06,0.006000241052062641,1.032795069487954e-06,0.006000241015833548,1.032598757298319e-06,0.006000240982651578,1.032548840798336e-06,0.006000240952832563,1.032539955266692e-06
0.006000272754656701,1.033234511217587e-06,0.006000272423838821,1.033222747133289e-06,0.006000272130741988,1.033219840302201e-06,0.006000271871121774,1.033212773146059e-06,0.006000267593836256,1.033195937136088e-06,0.006000267525422796,1.033068120970013e-06,0.006000267463537745,1.032798894387588e-06,0.006000267408767627,1.03260283370281e-06,0.006000267358886795,1.03255353894945e-06,0.006000267314176701,1.032545227584666e-06
