/Idpi/M7/S (vgsp_il=0.4) X,/Idpi/M7/S (vgsp_il=0.4) Y,/Idpi/M7/S (vgsp_il=0.4519324) X,/Idpi/M7/S (vgsp_il=0.4519324) Y,/Idpi/M7/S (vgsp_il=0.5106072) X,/Idpi/M7/S (vgsp_il=0.5106072) Y,/Idpi/M7/S (vgsp_il=0.5768998) X,/Idpi/M7/S (vgsp_il=0.5768998) Y,/Idpi/M7/S (vgsp_il=0.6517993) X,/Idpi/M7/S (vgsp_il=0.6517993) Y,/Idpi/M7/S (vgsp_il=0.736423) X,/Idpi/M7/S (vgsp_il=0.736423) Y,/Idpi/M7/S (vgsp_il=0.8320335) X,/Idpi/M7/S (vgsp_il=0.8320335) Y,/Idpi/M7/S (vgsp_il=0.9400572) X,/Idpi/M7/S (vgsp_il=0.9400572) Y,/Idpi/M7/S (vgsp_il=1.062106) X,/Idpi/M7/S (vgsp_il=1.062106) Y,/Idpi/M7/S (vgsp_il=1.2) X,/Idpi/M7/S (vgsp_il=1.2) Y
0,1.906594845114801e-12,0,1.906630827641812e-12,0,1.906718037929999e-12,0,1.90703677751803e-12,0,1.909062803229145e-12,0,1.930817334458705e-12,0,2.281634177924082e-12,0,1.175028391647575e-11,0,1.812921639948718e-09,0,2.832231237431844e-09
0.001,1.906594845076591e-12,0.001,1.9066308278115e-12,0.001,1.906718037928245e-12,0.001,1.907036777518062e-12,0.001,1.909062803218829e-12,0.001,1.930817334451717e-12,0.001,2.281634177971167e-12,0.001,1.199455010937538e-11,0.001,1.81291716029705e-09,0.001,2.832231237382786e-09
0.003,1.90659484509733e-12,0.003,1.906630827794089e-12,0.003,1.906718037929137e-12,0.003,1.907036777518092e-12,0.003,1.909062803227578e-12,0.003,1.930817334453724e-12,0.003,2.281634177976138e-12,0.003,1.20818545924237e-11,0.003,1.812917438257549e-09,0.003,2.832231237243894e-09
0.006,1.906594845103082e-12,0.006,1.906630827794236e-12,0.006,1.9067180379292e-12,0.006,1.907036777518066e-12,0.006,1.909062803229955e-12,0.006,1.930817334455113e-12,0.006,2.281634177979126e-12,0.006,1.216252569847792e-11,0.006,1.812917971042603e-09,0.006,2.832231236980788e-09
0.006000000208854167,1.906585456509084e-12,0.006000000208794317,1.90663082709799e-12,0.006000000208741345,1.906718022701744e-12,0.006000000208694459,1.907036778445047e-12,0.006000000208652961,1.909062798944679e-12,0.006000000208616232,1.930817322385065e-12,0.006000000208583724,2.281634177869617e-12,0.006000000208554951,1.21629187836626e-11,0.006000000208529485,1.812917971043495e-09,0.006000000208506944,2.832231236921931e-09
0.0060000006265625,1.906599088341117e-12,0.006000000626382951,1.906630827129466e-12,0.006000000626224034,1.906718045982313e-12,0.006000000626083378,1.907036778215669e-12,0.006000000625958884,1.909062803550211e-12,0.006000000625848696,1.930817340636857e-12,0.006000000625751172,2.281634179233744e-12,0.006000000625664853,1.216292052645793e-11,0.006000000625588454,1.812917971121257e-09,0.006000000625520833,2.832231237000667e-09
0.006000001461979166,1.90659574124131e-12,0.006000001461560218,1.906630828634415e-12,0.006000001461189412,1.906718040090812e-12,0.006000001460861215,1.90703677784869e-12,0.006000001460570729,1.909062803511596e-12,0.006000001460313624,1.930817334712714e-12,0.006000001460086069,2.281634178090364e-12,0.006000001459884658,1.216291985045678e-11,0.006000001459706391,1.812917971098891e-09,0.006000001459548611,2.832231236989513e-09
0.006000002176273923,1.906594955966963e-12,0.006000002175054484,1.906630836139065e-12,0.006000002173974311,1.906718044139977e-12,0.006000002173017579,1.907036782737298e-12,0.006000002172170235,1.909062806197998e-12,0.006000002171419822,1.930817335273431e-12,0.006000002170755289,2.281634179488551e-12,0.006000002170166814,1.216291986459255e-11,0.006000002169645706,1.812917971097944e-09,0.006000002169184255,2.832231236983458e-09
0.006000003096605545,1.906595058475461e-12,0.006000003094193149,1.906630939117885e-12,0.006000003092055955,1.906718139147188e-12,0.006000003090162758,1.907036850587714e-12,0.006000003088485837,1.909062845014303e-12,0.006000003087000602,1.930817364408649e-12,0.006000003085685231,2.281634205469436e-12,0.006000003084520333,1.216291990540059e-11,0.006000003083488736,1.812917971130102e-09,0.006000003082575203,2.832231237017027e-09
0.006000004365631513,1.906596756987241e-12,0.006000004361446544,1.906632676662046e-12,0.006000004357738886,1.906719734400532e-12,0.006000004354454431,1.90703799268964e-12,0.006000004351545118,1.909063494896969e-12,0.006000004348968301,1.93081783026058e-12,0.00600000434668613,2.281634642977778e-12,0.006000004344664987,1.21629203895287e-11,0.006000004342875087,1.812917971679454e-09,0.006000004341289999,2.832231237627139e-09
0.006000006087613326,1.906618028959957e-12,0.00600000608086988,1.906654778920761e-12,0.006000006074895625,1.906740127516852e-12,0.006000006069603346,1.907052668991321e-12,0.006000006064915584,1.909071877046155e-12,0.006000006060763598,1.93082386457102e-12,0.006000006057086386,2.281640295333904e-12,0.006000006053829782,1.216292639963443e-11,0.006000006050945782,1.812917978905884e-09,0.006000006048391799,2.832231245626371e-09
0.006000008348117652,1.90678905586662e-12,0.006000008337863167,1.906833694277701e-12,0.006000008328778718,1.906906499210987e-12,0.006000008320731559,1.907173232686292e-12,0.006000008313603809,1.909141046552299e-12,0.006000008307290867,1.930873729990928e-12,0.006000008301699917,2.281687081962265e-12,0.006000008296748563,1.216297601519393e-11,0.006000008292363781,1.812918039573694e-09,0.006000008288480797,2.832231313157557e-09
0.00600001121184909,1.907674451418221e-12,0.006000011196903908,1.90776894041303e-12,0.006000011183664729,1.907785120219111e-12,0.006000011171937825,1.907815895428938e-12,0.006000011161551205,1.90951180834424e-12,0.006000011152352273,1.931141561447201e-12,0.00600001114420565,2.281938606246231e-12,0.006000011136991184,1.216324296474531e-11,0.006000011130602392,1.812918371538229e-09,0.006000011124944835,2.832231685413954e-09
0.006000014755840866,1.910859410075144e-12,0.00600001473479712,1.911176436143345e-12,0.006000014716156744,1.911030223718875e-12,0.006000014699646544,1.910219286044473e-12,0.006000014685024039,1.910908337013826e-12,0.006000014672074133,1.932152522344849e-12,0.006000014660606035,2.282888875833042e-12,0.006000014650450448,1.216425302918396e-11,0.006000014641457354,1.812919654641858e-09,0.006000014633493716,2.832233137958264e-09
0.006000019071863813,1.919386612268147e-12,0.006000019043037971,1.920453550628918e-12,0.006000019017506,1.920027230667327e-12,0.006000018994893087,1.916995673104121e-12,0.006000018974866642,1.914883356508191e-12,0.006000018957131695,1.935037032585145e-12,0.006000018941426658,2.285602556954744e-12,0.006000018927519465,1.216714290816989e-11,0.00600001891520449,1.812923430650794e-09,0.006000018904299418,2.832237464760033e-09
0.006000024263318298,1.937291626496649e-12,0.006000024224806,1.940364958771024e-12,0.006000024190696587,1.939810754128694e-12,0.006000024160488552,1.932239069289643e-12,0.006000024133736985,1.923939592287362e-12,0.006000024110047377,1.94162783256513e-12,0.00600002408906993,2.291808375703114e-12,0.006000024070494389,1.217376740025753e-11,0.006000024054045867,1.812932416431474e-09,0.006000024039480677,2.832247920560438e-09
0.006000030436023085,1.967934008571093e-12,0.006000030385657411,1.975421698282873e-12,0.006000030341052118,1.975774078948737e-12,0.006000030301550515,1.960809150875413e-12,0.006000030266570111,1.94120589662707e-12,0.006000030235594503,1.954238275070576e-12,0.006000030208165913,2.303692549212362e-12,0.006000030183878375,1.218649205767157e-11,0.006000030162372209,1.81295054348782e-09,0.006000030143328598,2.832269415543684e-09
0.006000037680882176,2.011877675909132e-12,0.006000037616467559,2.027545650918167e-12,0.006000037559422015,2.031518596374596e-12,0.006000037508904985,2.006927462896348e-12,0.006000037464170785,1.969719624197678e-12,0.006000037424558535,1.975154229659186e-12,0.006000037389482643,2.323421284896409e-12,0.006000037358423789,1.220769977407548e-11,0.006000037330921781,1.812982704027036e-09,0.006000037306568748,2.832308412213763e-09
0.006000046044824086,2.065712314226804e-12,0.006000045964400513,2.094341658661025e-12,0.006000045893178882,2.106849959202095e-12,0.006000045830109141,2.072632117281417e-12,0.006000045774258963,2.011573120216549e-12,0.00600004572480271,2.006016317420018e-12,0.0060000456810098,2.352556052159055e-12,0.006000045642232072,1.223917909069412e-11,0.006000045607894723,1.813034255648907e-09,0.006000045577488365,2.832372503740872e-09
0.006000055527615488,2.122989178707261e-12,0.006000055429406639,2.169406952491413e-12,0.006000055342439038,2.197306559105811e-12,0.006000055265407794,2.157023102849759e-12,0.006000055197115928,2.067420517696399e-12,0.00600005513664016,2.047444255559651e-12,0.006000055083088976,2.391690523495322e-12,0.006000055035670571,1.228173795170705e-11,0.006000054993681405,1.813110558847831e-09,0.006000054956498189,2.832469902198442e-09
0.006000066146528272,2.17691959422533e-12,0.006000066027834846,2.244856519850124e-12,0.006000065922739852,2.29592560185534e-12,0.006000065829663592,2.257110372692563e-12,0.006000065747154246,2.13689940930196e-12,0.006000065674084858,2.099319545654725e-12,0.00600006560938215,2.440704317638063e-12,0.00600006555209092,1.233547418038256e-11,0.006000065501359357,1.813217297848965e-09,0.006000065456433297,2.832609785562145e-09
0.006000078054402318,2.222711875346817e-12,0.006000077910912136,2.314102399821286e-12,0.006000077783886614,2.39591666233089e-12,0.006000077671410539,2.369795561722959e-12,0.006000077571718923,2.219914258417904e-12,0.006000077483428636,2.161720634302576e-12,0.006000077405249431,2.499632101342356e-12,0.00600007733602954,1.240073522786069e-11,0.006000077274736317,1.813362383659395e-09,0.006000077220456402,2.832804781807443e-09
0.006000089027201159,2.252260818201362e-12,0.006000088955456067,2.363349287108158e-12,0.006000088891943306,2.476322582371842e-12,0.00600008883570527,2.47268706089358e-12,0.006000090987224496,2.317385732340162e-12,0.006000090879660852,2.235491202451402e-12,0.006000090784419458,2.569180222306457e-12,0.006000090700100624,1.247875016649027e-11,0.006000090625440705,1.813558310745898e-09,0.006000090559323502,2.833074393423002e-09
0.00600009451360058,2.263008366832404e-12,0.006000094477728033,2.382832448745687e-12,0.006000094445971653,2.51163229489335e-12,0.006000094417852635,2.522675833094073e-12,0.006000095493612248,2.351175868025245e-12,0.006000095439830426,2.261264420790696e-12,0.006000095392209729,2.593618551778786e-12,0.006000095350050312,1.250670198618284e-11,0.006000095312720352,1.813634962089171e-09,0.006000095279661751,2.833182170703523e-09
0.0060001,2.271445331377309e-12,0.0060001,2.399012604444396e-12,0.0060001,2.543163787813558e-12,0.0060001,2.570658758280923e-12,0.0060001,2.384727800896052e-12,0.0060001,2.287066029735081e-12,0.0060001,2.618115365774735e-12,0.0060001,1.253488735608443e-11,0.006000099999999999,1.81371557655333e-09,0.0060001,2.833296339389354e-09
0.006000100835416666,2.272516846751589e-12,0.006000100835177266,2.401155517596257e-12,0.006000100834965377,2.547561553096923e-12,0.006000100834777836,2.57767176777526e-12,0.006000100834611845,2.390899085852113e-12,0.006000100834464929,2.291785784569686e-12,0.006000100834334895,2.622554468706785e-12,0.006000100834219804,1.253996868060641e-11,0.006000100834117937,1.813730398225521e-09,0.006000100834027777,2.833317274879498e-09
0.006000101720624255,2.273649754500063e-12,0.006000101721253983,2.403446777173452e-12,0.006000101721801452,2.552311168239387e-12,0.006000101722278648,2.585290211595769e-12,0.006000101664935413,2.397208493357946e-12,0.006000101667265211,2.296545242346078e-12,0.006000101669306737,2.627010330054322e-12,0.006000101671097571,1.254508064273178e-11,0.006000101672670529,1.813745398839445e-09,0.006000101674053713,2.833338511032535e-09
0.006000102901855588,2.275053520431979e-12,0.006000102905829585,2.406310505709483e-12,0.006000102909321295,2.558337303887848e-12,0.006000102912393022,2.595138393584239e-12,0.006000102711089797,2.404988040122294e-12,0.006000102720026057,2.302513510441045e-12,0.006000102727890531,2.632644072825853e-12,0.006000102734815728,1.255157278512107e-11,0.006000102740918817,1.813764657407778e-09,0.006000102746301353,2.833365868924079e-09
0.006000104355809183,2.276673278642892e-12,0.006000104358684783,2.409655130628313e-12,0.006000104361199633,2.565492469697487e-12,0.006000104363402704,2.607020400193069e-12,0.006000104143268694,2.415631001425118e-12,0.00600010415198923,2.310631234051235e-12,0.006000104159663739,2.64026057799329e-12,0.006000104166475807,1.256032103408688e-11,0.006000104172441504,1.813790776991452e-09,0.006000104177703908,2.833402891678546e-09
0.006000106013852493,2.2783628636718e-12,0.006000106015377891,2.413231729877979e-12,0.006000106016689297,2.573353355337507e-12,0.006000106017820696,2.620389022166559e-12,0.006000105763577953,2.427659945604301e-12,0.00600010577253188,2.319813551155996e-12,0.006000105780402758,2.648872739203123e-12,0.006000105787398842,1.257023529927188e-11,0.006000105793508721,1.813820788142783e-09,0.006000105798894602,2.833445520957964e-09
0.006000108111547108,2.280179836910552e-12,0.006000108111532305,2.417309302981815e-12,0.006000108111466414,2.582757014565079e-12,0.006000108111368029,2.636955564026719e-12,0.006000107798665702,2.442712256912467e-12,0.006000107808605298,2.331318182648198e-12,0.00600010781732573,2.659658465577283e-12,0.006000107825067929,1.258268840993448e-11,0.006000107831816299,1.813859151096706e-09,0.006000107837757385,2.833500158839959e-09
0.006000110788179353,2.281661528283352e-12,0.006000110786011694,2.42144858772547e-12,0.006000110784022674,2.593542634996789e-12,0.0060001107822087,2.657257549715227e-12,0.006000110393215514,2.461677130773026e-12,0.006000110404276168,2.345835861963883e-12,0.006000110413964433,2.67325517987048e-12,0.006000110422557848,1.259844949882188e-11,0.00600011043003553,1.813908947041414e-09,0.006000110436611548,2.833571328439427e-09
0.006000114160455488,2.281355158894266e-12,0.006000114155394172,2.424053430108397e-12,0.006000114150822397,2.604285735954062e-12,0.006000114146706037,2.680772363687639e-12,0.006000113658650623,2.484797436148497e-12,0.006000113671050481,2.363589510378467e-12,0.006000113681896379,2.689859260949084e-12,0.006000113691509748,1.261782325018424e-11,0.006000113699861841,1.813972678566014e-09,0.00600011370719994,2.83366290983894e-09
0.006000118326878348,2.27627972143416e-12,0.006000118317700477,2.421708741131843e-12,0.00600011830946014,2.611553722227523e-12,0.006000118302077712,2.705272000453435e-12,0.006000117699566421,2.5114647515586e-12,0.006000117713016678,2.384192717596856e-12,0.006000117724760625,2.709087432045615e-12,0.00600011773516792,1.264051135273915e-11,0.006000117744187275,1.814052371637517e-09,0.006000117752102528,2.833778375081196e-09
0.006000123373643509,2.262247750372256e-12,0.00600012335880539,2.40936323736914e-12,0.006000123345526824,2.609867291935889e-12,0.006000123333663439,2.726613212554609e-12,0.00600012260372228,2.539890063239354e-12,0.006000122617673752,2.406418959356417e-12,0.006000122629824969,2.729766274321904e-12,0.006000122640593304,1.266538942528057e-11,0.006000122649890374,1.81414915836508e-09,0.006000122658036,2.833920260473965e-09
0.006000129394968574,2.235442674727472e-12,0.0060001293726848,2.381869347300578e-12,0.00600012935278415,2.59293376623942e-12,0.006000129335035156,2.739429862760998e-12,0.006000128464270691,2.567425253280764e-12,0.006000128478042733,2.428444750266541e-12,0.006000128489993417,2.750162714946536e-12,0.00600012850058433,1.269076250138537e-11,0.006000128509676714,1.814263722501964e-09,0.006000128517623391,2.834090729640311e-09
0.006000136482330758,2.194591166986912e-12,0.006000136450660781,2.336349036211846e-12,0.006000136422417185,2.555764855969331e-12,0.0060001363972568,2.738359241251433e-12,0.006000135374319079,2.591108002389946e-12,0.006000135387084765,2.448240665711568e-12,0.00600013539809784,2.768353371004302e-12,0.006000135407857624,1.271475132720196e-11,0.006000135416161644,1.814396502296693e-09,0.006000135423390398,2.834291658439514e-09
0.006000144696144767,2.142405506026754e-12,0.006000144653154924,2.274180199611381e-12,0.0060001446148547,2.496869826354438e-12,0.006000144580764173,2.719496541448016e-12,0.006000143400073534,2.608290707974282e-12,0.006000143410758304,2.464008939854014e-12,0.006000143419879722,2.782638015190414e-12,0.00600014342796183,1.27357088299412e-11,0.006000143434725816,1.814547571946687e-09,0.006000143440569413,2.834524178839164e-09
0.006000154044474376,2.085088209889738e-12,0.00600015398825046,2.201227457951888e-12,0.006000153938198888,2.419348359432452e-12,0.006000153893677473,2.6815312923161e-12,0.006000152553869461,2.617194023196065e-12,0.006000152561298856,2.474559227850548e-12,0.006000152567487148,2.791894536829689e-12,0.006000152572967931,1.275257029380993e-11,0.006000152577372964,1.8147164400336e-09,0.006000152581104774,2.83478813578541e-09
0.006000164534551477,2.029737634934567e-12,0.006000164462943275,2.125571910095827e-12,0.006000164399238887,2.329689423353667e-12,0.006000164342604505,2.62571719437865e-12,0.006000162837857956,2.617160508081168e-12,0.006000162840869006,2.47949490930496e-12,0.006000162843091424,2.795748620311456e-12,0.006000162845055472,1.276506015215124e-11,0.006000162846288465,1.81490291747467e-09,0.006000162847186272,2.835083369481291e-09
0.006000176292847709,1.981616290419732e-12,0.006000176202634597,2.054361985717328e-12,0.006000176122428182,2.234993303629407e-12,0.006000176051159972,2.55443950734755e-12,0.006000174352849045,2.608275240433346e-12,0.006000174350362121,2.47898288863935e-12,0.00600017434765336,2.794344054865957e-12,0.006000174345246029,1.2773548599056e-11,0.00600017434254121,1.815108914538416e-09,0.006000174339922714,2.835412724710849e-09
0.006000189619877771,1.943456467827202e-12,0.006000189506263581,1.992560450336788e-12,0.006000189405312234,2.141468899400414e-12,0.006000189315656749,2.470005052006048e-12,0.006000187371005885,2.59064035680212e-12,0.006000187361748479,2.473267527399576e-12,0.006000187352965227,2.787871461461598e-12,0.00600018734517537,1.277865442728953e-11,0.006000187337621072,1.815339460140032e-09,0.006000187330672637,2.835783943920864e-09
0.00600020499524915,1.915994007382985e-12,0.006000204851130036,1.943158683709825e-12,0.006000204723151864,2.054476595084426e-12,0.006000204609554168,2.374518756287097e-12,0.006000202338971679,2.563881247404563e-12,0.006000202321124703,2.462309858809146e-12,0.006000202304631845,2.776216145178278e-12,0.006000202290014032,1.278094125080366e-11,0.006000202276306352,1.815602576426056e-09,0.006000202263864548,2.836209640583643e-09
0.006000223135430771,1.898504385373999e-12,0.006000222950047482,1.907420111156358e-12,0.006000222785534655,1.978679414132724e-12,0.006000222639592831,2.270169256982169e-12,0.006000219924571865,2.526838979505566e-12,0.006000219895352108,2.445553770332315e-12,0.006000219868649318,2.758711152065662e-12,0.006000219844993894,1.278080345782067e-11,0.006000219823141169,1.815910018546481e-09,0.006000219803429815,2.836708553093582e-09
0.006000245132703636,1.889243192896276e-12,0.006000244889011037,1.884991511848275e-12,0.006000244672913844,1.917958002963837e-12,0.006000244481340134,2.159699544021124e-12,0.006000241138028759,2.477174151966983e-12,0.006000241092977851,2.42159399216526e-12,0.006000241052062641,2.733761010002941e-12,0.006000241015833548,1.277838679801389e-11,0.006000240982651578,1.816279315874686e-09,0.006000240952832563,2.837308871059076e-09
0.006000272754656701,1.885872795012931e-12,0.006000272423838821,1.874002696784565e-12,0.006000272130741988,1.875012756386489e-12,0.006000271871121774,2.047081884921693e-12,0.006000267593836256,2.410622370752592e-12,0.006000267525422796,2.387458376900368e-12,0.006000267463537745,2.698002847370645e-12,0.006000267408767627,1.277342061561492e-11,0.006000267358886795,1.816738181746963e-09,0.006000267314176701,2.838055417026942e-09
0.006000309117066893,1.885946346086419e-12,0.00600030864578268,1.871364563625023e-12,0.006000308228706638,1.850721099222572e-12,0.006000307859671616,1.938643229713853e-12,0.006000302090404828,2.319527482675722e-12,0.006000301984868631,2.336848353421765e-12,0.006000301889674602,2.644170025633434e-12,0.006000301805473694,1.276475951833238e-11,0.006000301729101,1.817334206875031e-09,0.006000301660781156,2.839025464086258e-09
