/Idpi/M7/S (vgsp_il=0.4) X,/Idpi/M7/S (vgsp_il=0.4) Y,/Idpi/M7/S (vgsp_il=0.4519324) X,/Idpi/M7/S (vgsp_il=0.4519324) Y,/Idpi/M7/S (vgsp_il=0.5106072) X,/Idpi/M7/S (vgsp_il=0.5106072) Y,/Idpi/M7/S (vgsp_il=0.5768998) X,/Idpi/M7/S (vgsp_il=0.5768998) Y,/Idpi/M7/S (vgsp_il=0.6517993) X,/Idpi/M7/S (vgsp_il=0.6517993) Y,/Idpi/M7/S (vgsp_il=0.736423) X,/Idpi/M7/S (vgsp_il=0.736423) Y,/Idpi/M7/S (vgsp_il=0.8320335) X,/Idpi/M7/S (vgsp_il=0.8320335) Y,/Idpi/M7/S (vgsp_il=0.9400572) X,/Idpi/M7/S (vgsp_il=0.9400572) Y,/Idpi/M7/S (vgsp_il=1.062106) X,/Idpi/M7/S (vgsp_il=1.062106) Y,/Idpi/M7/S (vgsp_il=1.2) X,/Idpi/M7/S (vgsp_il=1.2) Y
0,1.906594845114801e-12,0,1.906630788570808e-12,0,1.906717788455615e-12,0,1.907036777518032e-12,0,1.909062759697039e-12,0,1.930817334452747e-12,0,2.281634176292047e-12,0,1.175042852304909e-11,0,1.812926752085735e-09,0,2.832231193246312e-09
0.001,1.90659484507659e-12,0.001,1.906630832564003e-12,0.001,1.906718070323034e-12,0.001,1.907036777518068e-12,0.001,1.909062808197298e-12,0.001,1.930817334214656e-12,0.001,2.281634176994843e-12,0.001,1.199462312073042e-11,0.001,1.812926752230255e-09,0.001,2.832231126053198e-09
0.003,1.90659484509733e-12,0.003,1.906630827630753e-12,0.003,1.906718033533653e-12,0.003,1.907036777518092e-12,0.003,1.909062803196479e-12,0.003,1.930817334301084e-12,0.003,2.281634177065519e-12,0.003,1.208189867725456e-11,0.003,1.812926752104014e-09,0.003,2.83223112881362e-09
0.006,1.906594845103051e-12,0.006,1.90663082697435e-12,0.006,1.906718013404616e-12,0.006,1.907036777518066e-12,0.006,1.909062803202073e-12,0.006,1.930817334383192e-12,0.006,2.281634177106814e-12,0.006,1.216254311202586e-11,0.006,1.812926751934793e-09,0.006,2.832231134394888e-09
0.006000000208854167,1.9065854577252e-12,0.006000000208794317,1.906636648689318e-12,0.006000000208741345,1.906824331337527e-12,0.006000000208694459,1.907036778444194e-12,0.006000000208652961,1.909062819319416e-12,0.006000000208616232,1.930817332529259e-12,0.006000000208583724,2.281634176999265e-12,0.006000000208554951,1.216293592866163e-11,0.006000000208529485,1.81292675193511e-09,0.006000000208506944,2.832231134395616e-09
0.0060000006265625,1.90659909156485e-12,0.006000000626382951,1.906636659634469e-12,0.006000000626224034,1.906825130295126e-12,0.006000000626083378,1.907036778221993e-12,0.006000000625958884,1.909062817425811e-12,0.006000000625848696,1.930817333802022e-12,0.006000000625751172,2.281634177018854e-12,0.006000000625664853,1.216293767079658e-11,0.006000000625588454,1.812926751934035e-09,0.006000000625520833,2.832231134395142e-09
0.006000001461979166,1.906595743641576e-12,0.006000001461560218,1.906636442119171e-12,0.006000001461189412,1.906822483557385e-12,0.006000001460861215,1.907036777873984e-12,0.006000001460570729,1.909062819447153e-12,0.006000001460313624,1.930817333865039e-12,0.006000001460086069,2.281634177275154e-12,0.006000001459884658,1.216293699922014e-11,0.006000001459706391,1.812926751933686e-09,0.006000001459548611,2.832231134394749e-09
0.006000002176273923,1.906594956517923e-12,0.006000002175054484,1.906636289653813e-12,0.006000002173974311,1.906820707838366e-12,0.006000002173017579,1.907036782311621e-12,0.006000002172170235,1.909062819984529e-12,0.006000002171419822,1.930817335732449e-12,0.006000002170755289,2.281634179083891e-12,0.006000002170166814,1.216293700716644e-11,0.006000002169645706,1.812926751936998e-09,0.006000002169184255,2.832231134397553e-09
0.006000003096605545,1.906595058377177e-12,0.006000003094193149,1.906636202468086e-12,0.006000003092055955,1.906818620377614e-12,0.006000003090162758,1.907036849536668e-12,0.006000003088485837,1.90906285925445e-12,0.006000003087000602,1.93081736366211e-12,0.006000003085685231,2.28163420450022e-12,0.006000003084520333,1.216293704992716e-11,0.006000003083488736,1.812926751969712e-09,0.006000003082575203,2.832231134432402e-09
0.006000004365631513,1.906596757303862e-12,0.006000004361446544,1.906637679992472e-12,0.006000004357738886,1.906817282892894e-12,0.006000004354454431,1.90703799295228e-12,0.006000004351545118,1.909063511220698e-12,0.006000004348968301,1.930817830111855e-12,0.00600000434668613,2.281634642062766e-12,0.006000004344664987,1.216293753445868e-11,0.006000004342875087,1.812926752522144e-09,0.006000004341289999,2.832231135042726e-09
0.006000006087613326,1.906618028779745e-12,0.00600000608086988,1.906659452544902e-12,0.006000006074895625,1.906833832674114e-12,0.006000006069603346,1.90705266933077e-12,0.006000006064915584,1.909071891709269e-12,0.006000006060763598,1.930823861795567e-12,0.006000006057086386,2.281640295252886e-12,0.006000006053829782,1.216294354466001e-11,0.006000006050945782,1.812926759751682e-09,0.006000006048391799,2.832231143040052e-09
0.006000008348117652,1.906789055776965e-12,0.006000008337863167,1.906837970681797e-12,0.006000008328778718,1.906995383183408e-12,0.006000008320731559,1.907173233571562e-12,0.006000008313603809,1.90914106127804e-12,0.006000008307290867,1.930873730523302e-12,0.006000008301699917,2.281687081371198e-12,0.006000008296748563,1.216299315838748e-11,0.006000008292363781,1.812926820422724e-09,0.006000008288480797,2.832231210572374e-09
0.00600001121184909,1.907674451313082e-12,0.006000011196903908,1.907772759079037e-12,0.006000011183664729,1.907868252656199e-12,0.006000011171937825,1.90781589515327e-12,0.006000011161551205,1.909511822869454e-12,0.006000011152352273,1.931141561467886e-12,0.00600001114420565,2.281938604798602e-12,0.006000011136991184,1.216326010987323e-11,0.006000011130602392,1.812927152394272e-09,0.006000011124944835,2.832231582827116e-09
0.006000014755840866,1.910859410187942e-12,0.00600001473479712,1.91117975382566e-12,0.006000014716156744,1.911106744758814e-12,0.006000014699646544,1.910219286067797e-12,0.006000014685024039,1.910908351709972e-12,0.006000014672074133,1.932152522557355e-12,0.006000014660606035,2.282888875053905e-12,0.006000014650450448,1.216427017376213e-11,0.006000014641457354,1.812928435505484e-09,0.006000014633493716,2.832233035372579e-09
0.006000019071863813,1.919386611642717e-12,0.006000019043037971,1.920456345784909e-12,0.006000019017506,1.920096401269838e-12,0.006000018994893087,1.916995673076468e-12,0.006000018974866642,1.91488337094148e-12,0.006000018957131695,1.935037032207102e-12,0.006000018941426658,2.285602555680357e-12,0.006000018927519465,1.216716005159864e-11,0.00600001891520449,1.812932211524537e-09,0.006000018904299418,2.832237362173575e-09
0.006000024263318298,1.937291626650785e-12,0.006000024224806,1.94036723085751e-12,0.006000024190696587,1.939871998477224e-12,0.006000024160488552,1.93223906928023e-12,0.006000024133736985,1.923939606372443e-12,0.006000024110047377,1.941627832263462e-12,0.00600002408906993,2.29180837434639e-12,0.006000024070494389,1.217378454495993e-11,0.006000024054045867,1.812941197321637e-09,0.006000024039480677,2.832247817975317e-09
0.006000030436023085,1.96793400851946e-12,0.006000030385657411,1.975423470469242e-12,0.006000030341052118,1.975827051335681e-12,0.006000030301550515,1.960809150897707e-12,0.006000030266570111,1.94120591031699e-12,0.006000030235594503,1.954238274618946e-12,0.006000030208165913,2.303692547456429e-12,0.006000030183878375,1.218650920152212e-11,0.006000030162372209,1.81295932440987e-09,0.006000030143328598,2.832269312958381e-09
0.006000037680882176,2.011877675692477e-12,0.006000037616467559,2.027546972292415e-12,0.006000037559422015,2.031563238885112e-12,0.006000037508904985,2.00692746332514e-12,0.006000037464170785,1.969719638041987e-12,0.006000037424558535,1.975154228785985e-12,0.006000037389482643,2.323421282401071e-12,0.006000037358423789,1.220771691882451e-11,0.006000037330921781,1.812991485003411e-09,0.006000037306568748,2.832308309628271e-09
0.006000046044824086,2.065712314326749e-12,0.006000045964400513,2.094342594122149e-12,0.006000045893178882,2.106886542247917e-12,0.006000045830109141,2.072632117157248e-12,0.006000045774258963,2.011573133949865e-12,0.00600004572480271,2.006016316291708e-12,0.0060000456810098,2.352556048392099e-12,0.006000045642232072,1.223919623569861e-11,0.006000045607894723,1.813043036719549e-09,0.006000045577488365,2.832372401153284e-09
0.006000055527615488,2.122989178719946e-12,0.006000055429406639,2.169407579095341e-12,0.006000055342439038,2.197335661620893e-12,0.006000055265407794,2.157023102900856e-12,0.006000055197115928,2.067420531144378e-12,0.00600005513664016,2.047444254199533e-12,0.006000055083088975,2.391690518740007e-12,0.006000055035670571,1.228175509710173e-11,0.006000054993681405,1.813119340074786e-09,0.006000054956498189,2.832469799610645e-09
0.006000066146528272,2.176919594097883e-12,0.006000066027834846,2.244856912302954e-12,0.006000065922739852,2.295947999433816e-12,0.006000065829663592,2.257110372690165e-12,0.006000065747154246,2.136899422331668e-12,0.006000065674084858,2.099319543154613e-12,0.006000065609382149,2.440704311287827e-12,0.00600006555209092,1.23354913270802e-11,0.006000065501359357,1.813226079318812e-09,0.006000065456433297,2.832609682970607e-09
0.006000078054402318,2.222711875399893e-12,0.006000077910912136,2.314102622022226e-12,0.006000077783886614,2.395933173540753e-12,0.006000077671410539,2.369795561711033e-12,0.006000077571718923,2.2199142709031e-12,0.006000077483428635,2.161720631510384e-12,0.006000077405249428,2.499632093225652e-12,0.00600007733602954,1.240075237570404e-11,0.006000077274736317,1.813371165493778e-09,0.006000077220456402,2.832804679212082e-09
0.006000089027201159,2.252260818233599e-12,0.006000088955456067,2.363349408953231e-12,0.006000088891943306,2.476334796347799e-12,0.00600008883570527,2.472687060878924e-12,0.006000090987224496,2.317385744878344e-12,0.006000090879660851,2.235491198750188e-12,0.006000090784419453,2.569180212210822e-12,0.006000090700100624,1.247876731611309e-11,0.006000090625440705,1.813567093121014e-09,0.006000090559323502,2.833074290821887e-09
0.00600009451360058,2.263008366839676e-12,0.006000094477728033,2.38283253634814e-12,0.006000094445971653,2.511642732035337e-12,0.006000094417852635,2.522675833074486e-12,0.006000095493612248,2.351175880319409e-12,0.006000095439830425,2.261264416776502e-12,0.006000095392209727,2.59361854095967e-12,0.006000095350050312,1.250671913673873e-11,0.006000095312720352,1.813643744686604e-09,0.006000095279661751,2.833182068098934e-09
0.0060001,2.271445331400328e-12,0.0060001,2.399012663960243e-12,0.0060001,2.54317264708987e-12,0.0060001,2.570658758248333e-12,0.0060001,2.384727812975309e-12,0.0060001,2.287066025183227e-12,0.0060001,2.618115354161994e-12,0.0060001,1.25349045075421e-11,0.006000099999999999,1.8137243593903e-09,0.0060001,2.833296236782149e-09
0.006000100835416666,2.272516846467214e-12,0.006000100835177266,2.401155573768191e-12,0.006000100834965377,2.547570192548485e-12,0.006000100834777836,2.577671767749707e-12,0.006000100834611845,2.390899097845687e-12,0.006000100834464929,2.291785779128218e-12,0.006000100834334895,2.622554457646375e-12,0.006000100834219804,1.253998583096979e-11,0.006000100834117937,1.813739181107525e-09,0.006000100834027777,2.833317172272218e-09
0.006000101720624255,2.273649754505633e-12,0.006000101721253983,2.403446828933781e-12,0.006000101721801452,2.552319579543717e-12,0.006000101722278648,2.585290211776278e-12,0.006000101664935413,2.397208505855547e-12,0.006000101667265211,2.296545236550603e-12,0.006000101669306737,2.627010318452263e-12,0.006000101671097571,1.254509779573133e-11,0.006000101672670529,1.813754181769986e-09,0.006000101674053713,2.833338408423207e-09
0.006000102901855588,2.275053522040457e-12,0.006000102905829585,2.406310553230058e-12,0.006000102909321295,2.558345413223578e-12,0.006000102912393022,2.595138393666047e-12,0.006000102711089797,2.404988052255398e-12,0.006000102720026057,2.30251350659881e-12,0.006000102727890531,2.632644060197896e-12,0.006000102734815728,1.255158993801893e-11,0.006000102740918817,1.813773440391724e-09,0.006000102746301353,2.833365766313073e-09
0.006000104355809183,2.276673278396222e-12,0.006000104358684783,2.40965517067265e-12,0.006000104361199633,2.56550022119298e-12,0.006000104363402704,2.60702040017929e-12,0.006000104143268694,2.415631013021152e-12,0.00600010415198923,2.310631228676658e-12,0.006000104159663739,2.640260565728867e-12,0.006000104166475807,1.256033818558365e-11,0.006000104172441504,1.813799560056197e-09,0.006000104177703908,2.833402789066911e-09
0.006000106013852493,2.278362863760377e-12,0.006000106015377891,2.413231764661669e-12,0.006000106016689297,2.573360706530125e-12,0.006000106017820696,2.620389022071849e-12,0.006000105763577953,2.427659956282956e-12,0.00600010577253188,2.319813546768911e-12,0.006000105780402758,2.648872727186579e-12,0.006000105787398842,1.257025245343338e-11,0.006000105793508721,1.81382957130191e-09,0.006000105798894602,2.833445418347914e-09
0.006000108111547108,2.280179836859036e-12,0.006000108111532305,2.41730933146563e-12,0.006000108111466414,2.582763880395128e-12,0.006000108111368029,2.636955564124095e-12,0.006000107798665702,2.442712269059777e-12,0.006000107808605298,2.331318177643764e-12,0.00600010781732573,2.659658452650344e-12,0.006000107825067929,1.2582705561116e-11,0.006000107831816299,1.813867934372348e-09,0.006000107837757385,2.833500056228938e-09
0.006000110788179353,2.28166152820677e-12,0.006000110786011694,2.421448607034379e-12,0.006000110784022674,2.593548908689264e-12,0.0060001107822087,2.657257549694781e-12,0.006000110393215514,2.461677142544215e-12,0.006000110404276168,2.345835856565583e-12,0.006000110413964433,2.673255167049301e-12,0.006000110422557848,1.259846665227571e-11,0.00600011043003553,1.813917730473947e-09,0.006000110436611548,2.833571225824726e-09
0.006000114160455488,2.281355158868721e-12,0.006000114155394172,2.424053439711054e-12,0.006000114150822397,2.604291304515579e-12,0.006000114146706037,2.680772363661366e-12,0.006000113658650623,2.484797447803893e-12,0.006000113671050481,2.363589506107986e-12,0.006000113681896379,2.689859248115009e-12,0.006000113691509748,1.261784040353339e-11,0.006000113699861841,1.813981462203281e-09,0.00600011370719994,2.833662807223037e-09
0.006000118326878348,2.276279721402026e-12,0.006000118317700477,2.421708739829992e-12,0.00600011830946014,2.611558481291742e-12,0.006000118302077712,2.705272000245982e-12,0.006000117699566421,2.51146476351785e-12,0.006000117713016678,2.384192712394504e-12,0.006000117724760625,2.709087418067982e-12,0.00600011773516792,1.264052850700811e-11,0.006000117744187275,1.814061155538012e-09,0.006000117752102528,2.833778272461386e-09
0.006000123373643509,2.262247750385035e-12,0.00600012335880539,2.409363223794947e-12,0.006000123345526824,2.609871152590291e-12,0.006000123333663439,2.726613212788115e-12,0.00600012260372228,2.539890075030079e-12,0.006000122617673752,2.406418953565642e-12,0.006000122629824969,2.729766260187134e-12,0.006000122640593304,1.266540658029165e-11,0.006000122649890374,1.814157942597786e-09,0.006000122658036,2.833920157851e-09
0.006000129394968574,2.235442674750061e-12,0.0060001293726848,2.381869321898291e-12,0.00600012935278415,2.592936663820654e-12,0.006000129335035156,2.739429862749067e-12,0.006000128464270691,2.567425264723188e-12,0.006000128478042733,2.428444743787325e-12,0.006000128489993417,2.75016270044092e-12,0.00600012850058433,1.269077965777942e-11,0.006000128509676714,1.814272507150748e-09,0.006000128517623391,2.834090627011553e-09
0.006000136482330758,2.194591166737929e-12,0.006000136450660781,2.336348999442162e-12,0.006000136422417185,2.555766759103824e-12,0.0060001363972568,2.738359241263427e-12,0.006000135374319079,2.591108014084542e-12,0.006000135387084765,2.448240659627848e-12,0.00600013539809784,2.76835335606234e-12,0.006000135407857624,1.271476848472105e-11,0.006000135416161644,1.814405287454133e-09,0.006000135423390398,2.834291555805603e-09
0.006000144696144767,2.142405506135412e-12,0.006000144653154924,2.27418015232689e-12,0.0060001446148547,2.496870743803749e-12,0.006000144580764173,2.719496541424965e-12,0.006000143400073534,2.60829071930687e-12,0.006000143410758304,2.464008933510963e-12,0.006000143419879722,2.782637999916151e-12,0.00600014342796183,1.273572598902192e-11,0.006000143434725816,1.814556357715801e-09,0.006000143440569413,2.834524076198045e-09
0.006000154044474376,2.085088209866064e-12,0.00600015398825046,2.201227401971072e-12,0.006000153938198888,2.419348347605824e-12,0.006000153893677473,2.681531292313751e-12,0.006000152553869461,2.617194033797495e-12,0.006000152561298856,2.47455922168136e-12,0.006000152567487148,2.791894521723277e-12,0.006000152572967931,1.275258745444493e-11,0.006000152577372964,1.814725226519931e-09,0.006000152581104774,2.83478803313521e-09
0.006000164534551477,2.029737634947292e-12,0.006000164462943275,2.125571847304539e-12,0.006000164399238887,2.329688575657438e-12,0.006000164342604505,2.625717194370509e-12,0.006000162837857956,2.617160518452199e-12,0.006000162840869005,2.479494902953817e-12,0.006000162843091424,2.795748605520204e-12,0.006000162845055472,1.276507731430786e-11,0.006000162846288465,1.814911704784832e-09,0.006000162847186272,2.835083266821187e-09
0.006000176292847709,1.981616290447428e-12,0.006000176202634597,2.054361917863709e-12,0.006000176122428182,2.234991735536994e-12,0.006000176051159972,2.554439507348796e-12,0.006000174352849045,2.60827525045984e-12,0.00600017435036212,2.478982882032941e-12,0.006000174347653359,2.794344040669939e-12,0.006000174345246029,1.277356576332234e-11,0.00600017434254121,1.815117702784968e-09,0.006000174339922714,2.835412622039888e-09
0.006000189619877771,1.943456467834464e-12,0.006000189506263581,1.992560379382286e-12,0.006000189405312234,2.141466735387286e-12,0.006000189315656749,2.470005052005243e-12,0.006000187371005885,2.59064036652262e-12,0.006000187361748477,2.473267520954378e-12,0.006000187352965224,2.787871447313552e-12,0.00600018734517537,1.277867159385038e-11,0.006000187337621072,1.815348249456294e-09,0.006000187330672637,2.835783841237478e-09
0.00600020499524915,1.915994007379338e-12,0.006000204851130036,1.943158611180704e-12,0.006000204723151864,2.054473965342289e-12,0.006000204609554168,2.374518756281399e-12,0.006000202338971679,2.563881256612871e-12,0.006000202321124699,2.462309852521685e-12,0.006000202304631839,2.776216132014376e-12,0.006000202290014032,1.278095841965467e-11,0.006000202276306352,1.815611366980537e-09,0.006000202263864548,2.836209537885274e-09
0.006000223135430771,1.89850438536544e-12,0.006000222950047482,1.907420038512218e-12,0.006000222785534655,1.978676454206358e-12,0.006000222639592831,2.270169256970286e-12,0.006000219924571865,2.526838988227607e-12,0.006000219895352103,2.445553763953219e-12,0.006000219868649308,2.758711140019914e-12,0.006000219844993894,1.278082062935084e-11,0.006000219823141169,1.81591881056054e-09,0.006000219803429815,2.836708450377765e-09
0.006000245132703636,1.889243192894057e-12,0.006000244889011037,1.884991440216572e-12,0.006000244672913844,1.917954853816843e-12,0.006000244481340134,2.159699544024917e-12,0.006000241138028759,2.477174160018641e-12,0.006000241092977843,2.421593986074108e-12,0.006000241052062624,2.733760999410108e-12,0.006000241015833548,1.277840397267051e-11,0.006000240982651578,1.816288109650555e-09,0.006000240952832563,2.837308768322399e-09
0.006000272754656701,1.885872795011661e-12,0.006000272423838821,1.874002627254091e-12,0.006000272130741988,1.875009562128446e-12,0.006000271871121774,2.047081884920291e-12,0.006000267593836256,2.410622377827387e-12,0.006000267525422784,2.387458371231694e-12,0.006000267463537717,2.698002838646214e-12,0.006000267408767627,1.277343779430518e-11,0.006000267358886795,1.816746977717676e-09,0.006000267314176701,2.838055314264246e-09
0.006000309117066893,1.885946346091233e-12,0.00600030864578268,1.871364497278671e-12,0.006000308228706638,1.850718004533559e-12,0.006000307859671616,1.938643229713122e-12,0.006000302090404828,2.319527488740592e-12,0.006000301984868611,2.336848348442912e-12,0.006000301889674553,2.644170020118848e-12,0.006000301805473694,1.276477670179649e-11,0.006000301729101,1.817343005699262e-09,0.006000301660781156,2.839025361289462e-09
