/Idpi/M7/S (vgsp_il=0.4) X,/Idpi/M7/S (vgsp_il=0.4) Y,/Idpi/M7/S (vgsp_il=0.4519324) X,/Idpi/M7/S (vgsp_il=0.4519324) Y,/Idpi/M7/S (vgsp_il=0.5106072) X,/Idpi/M7/S (vgsp_il=0.5106072) Y,/Idpi/M7/S (vgsp_il=0.5768998) X,/Idpi/M7/S (vgsp_il=0.5768998) Y,/Idpi/M7/S (vgsp_il=0.6517993) X,/Idpi/M7/S (vgsp_il=0.6517993) Y,/Idpi/M7/S (vgsp_il=0.736423) X,/Idpi/M7/S (vgsp_il=0.736423) Y,/Idpi/M7/S (vgsp_il=0.8320335) X,/Idpi/M7/S (vgsp_il=0.8320335) Y,/Idpi/M7/S (vgsp_il=0.9400572) X,/Idpi/M7/S (vgsp_il=0.9400572) Y,/Idpi/M7/S (vgsp_il=1.062106) X,/Idpi/M7/S (vgsp_il=1.062106) Y,/Idpi/M7/S (vgsp_il=1.2) X,/Idpi/M7/S (vgsp_il=1.2) Y
0,1.906594843000917e-12,0,1.906630824684519e-12,0,1.906718032928588e-12,0,1.907036765003273e-12,0,1.909062742970981e-12,0,1.930816763535584e-12,0,2.281625687789126e-12,0,1.221412119514756e-11,0,1.812874820666402e-09,0,2.832150635447415e-09
0.001,1.906594843000953e-12,0.001,1.906630824868576e-12,0.001,1.906718032928627e-12,0.001,1.907036765003293e-12,0.001,1.909062742970972e-12,0.001,1.930816763534809e-12,0.001,2.281625688112325e-12,0.001,1.221412119590709e-11,0.001,1.812874820648558e-09,0.001,2.832150663703882e-09
0.003,1.906594843000956e-12,0.003,1.906630824849533e-12,0.003,1.906718032928618e-12,0.003,1.907036765003325e-12,0.003,1.909062742970967e-12,0.003,1.930816763534877e-12,0.003,2.281625688100161e-12,0.003,1.221412119978129e-11,0.003,1.812874820638833e-09,0.003,2.832150676541803e-09
0.006,1.906594843000944e-12,0.006,1.906630824849816e-12,0.006,1.906718032928638e-12,0.006,1.907036765003301e-12,0.006,1.909062742970953e-12,0.006,1.930816763534887e-12,0.006,2.281625688083777e-12,0.006,1.221412120764051e-11,0.006,1.812874820660078e-09,0.006,2.832150687331391e-09
0.006000000208854167,1.906594844326044e-12,0.006000000208794317,1.906630824629018e-12,0.006000000208741345,1.906718030638511e-12,0.006000000208694459,1.907036762863183e-12,0.006000000208652961,1.909062742802751e-12,0.006000000208616232,1.930816763383171e-12,0.006000000208583724,2.281625637495434e-12,0.006000000208554951,1.221412120810653e-11,0.006000000208529485,1.812874820663999e-09,0.006000000208506944,2.832150686010804e-09
0.0060000006265625,1.906594844545724e-12,0.006000000626382951,1.906630826351321e-12,0.006000000626224034,1.906718030752448e-12,0.006000000626083378,1.907036764488698e-12,0.006000000625958884,1.909062743031584e-12,0.006000000625848696,1.930816763440143e-12,0.006000000625751172,2.281625712207448e-12,0.006000000625664853,1.2214121208118e-11,0.006000000625588454,1.81287482065769e-09,0.006000000625520833,2.832150687936169e-09
0.006000001461979166,1.906594843674824e-12,0.006000001461560218,1.906630826274277e-12,0.006000001461189412,1.906718034650541e-12,0.006000001460861215,1.907036765149113e-12,0.006000001460570729,1.909062742656252e-12,0.006000001460313624,1.9308167638284e-12,0.006000001460086069,2.2816256920369e-12,0.006000001459884658,1.221412120257153e-11,0.006000001459706391,1.812874820658985e-09,0.006000001459548611,2.832150687402575e-09
0.006000002176273923,1.906594851065179e-12,0.006000002175054484,1.906630831611578e-12,0.006000002173974311,1.906718040500366e-12,0.006000002173017579,1.907036769875519e-12,0.006000002172170235,1.909062746092016e-12,0.006000002171419822,1.930816766218971e-12,0.006000002170755289,2.281625690380722e-12,0.006000002170166814,1.221412120770871e-11,0.006000002169645706,1.812874820664007e-09,0.006000002169184255,2.832150687319046e-09
0.006000003096605545,1.906594950622242e-12,0.006000003094193149,1.906630935375977e-12,0.006000003092055955,1.906718134256262e-12,0.006000003090162758,1.907036836602162e-12,0.006000003088485837,1.909062783259579e-12,0.006000003087000602,1.93081679248792e-12,0.006000003085685231,2.281625716065884e-12,0.006000003084520333,1.221412123832617e-11,0.006000003083488736,1.812874820695355e-09,0.006000003082575203,2.83215068735002e-09
0.006000004365631513,1.9065966331812e-12,0.006000004361446544,1.906632673649522e-12,0.006000004357738886,1.906719730093609e-12,0.006000004354454431,1.907037980935436e-12,0.006000004351545118,1.909063435112233e-12,0.006000004348968301,1.930817259175432e-12,0.00600000434668613,2.281626153532777e-12,0.006000004344664987,1.221412169979171e-11,0.006000004342875087,1.812874821248225e-09,0.006000004341289999,2.832150687962683e-09
0.006000006087613326,1.906617918604335e-12,0.00600000608086988,1.906654775599654e-12,0.006000006074895625,1.906740122213161e-12,0.006000006069603346,1.907052654778805e-12,0.006000006064915584,1.909071816896528e-12,0.006000006060763598,1.93082329172798e-12,0.006000006057086386,2.281631805395992e-12,0.006000006053829782,1.221412768132833e-11,0.006000006050945782,1.812874828478611e-09,0.006000006048391799,2.83215069596206e-09
0.006000008348117652,1.906788961116083e-12,0.006000008337863167,1.906833691469233e-12,0.006000008328778718,1.906906494384178e-12,0.006000008320731559,1.907173220307327e-12,0.006000008313603809,1.909140986283424e-12,0.006000008307290867,1.930873159817371e-12,0.006000008301699917,2.281678592120717e-12,0.006000008296748563,1.22141772568404e-11,0.006000008292363781,1.812874889147612e-09,0.006000008288480797,2.832150763493607e-09
0.00600001121184909,1.907674371553376e-12,0.006000011196903908,1.907768937886619e-12,0.006000011183664729,1.907785115071971e-12,0.006000011171937825,1.907815883056091e-12,0.006000011161551205,1.909511748069486e-12,0.006000011152352273,1.931140990580185e-12,0.00600001114420565,2.281930116053692e-12,0.006000011136991184,1.221444416808179e-11,0.006000011130602392,1.812875221117459e-09,0.006000011124944835,2.832151135747553e-09
0.006000014755840866,1.910859343496623e-12,0.00600001473479712,1.91117643312116e-12,0.006000014716156744,1.911030218718346e-12,0.006000014699646544,1.910219273836748e-12,0.006000014685024039,1.91090827704228e-12,0.006000014672074133,1.932151951814976e-12,0.006000014660606035,2.282880386272876e-12,0.006000014650450448,1.221545420782634e-11,0.006000014641457354,1.81287650422362e-09,0.006000014633493716,2.832152588283975e-09
0.006000019071863813,1.919386559379743e-12,0.006000019043037971,1.920453548007303e-12,0.006000019017506,1.920027225989316e-12,0.006000018994893087,1.916995660794482e-12,0.006000018974866642,1.914883296752119e-12,0.006000018957131695,1.935036462680674e-12,0.006000018941426658,2.285594068724398e-12,0.006000018927519465,1.221834411375368e-11,0.00600001891520449,1.812880280226925e-09,0.006000018904299418,2.832156915060557e-09
0.006000024263318298,1.937291587444922e-12,0.006000024224806,1.940364956647665e-12,0.006000024190696587,1.939810749407502e-12,0.006000024160488552,1.932239057609718e-12,0.006000024133736985,1.923939533622509e-12,0.006000024110047377,1.941627264210825e-12,0.00600002408906993,2.291799890294168e-12,0.006000024070494389,1.222496875990938e-11,0.006000024054045867,1.812889265975923e-09,0.006000024039480677,2.832167370787695e-09
0.006000030436023085,1.967933980585869e-12,0.006000030385657411,1.975421695855748e-12,0.006000030341052118,1.975774074867957e-12,0.006000030301550515,1.960809140589818e-12,0.006000030266570111,1.941205840578463e-12,0.006000030235594503,1.954237711700601e-12,0.006000030208165913,2.303684070398494e-12,0.006000030183878375,1.223769380360984e-11,0.006000030162372209,1.812907392948758e-09,0.006000030143328598,2.83218886558892e-09
0.006000037680882176,2.011877657375835e-12,0.006000037616467559,2.027545649261794e-12,0.006000037559422015,2.031518594117689e-12,0.006000037508904985,2.006927456256528e-12,0.006000037464170785,1.969719573998605e-12,0.006000037424558535,1.975153674767905e-12,0.006000037389482643,2.323412816772576e-12,0.006000037358423789,1.225890227250074e-11,0.006000037330921781,1.812939553295275e-09,0.006000037306568748,2.832227861870342e-09
0.006000046044824086,2.065712303689673e-12,0.006000045964400513,2.094341658833437e-12,0.006000045893178882,2.106849959709811e-12,0.006000045830109141,2.072632116270319e-12,0.006000045774258963,2.011573081177487e-12,0.00600004572480271,2.0060157805243e-12,0.0060000456810098,2.352547603460189e-12,0.006000045642232072,1.229038285785649e-11,0.006000045607894723,1.81299110454089e-09,0.006000045577488365,2.832291952649124e-09
0.006000055527615488,2.122989174143763e-12,0.006000055429406639,2.169406955006987e-12,0.006000055342439038,2.197306564430607e-12,0.006000055265407794,2.157023112012751e-12,0.006000055197115928,2.067420498156952e-12,0.00600005513664016,2.047443747759648e-12,0.006000055083088976,2.391682105739145e-12,0.006000055035670571,1.233294366021157e-11,0.006000054993681405,1.813067407076112e-09,0.006000054956498189,2.832389349801807e-09
0.006000066146528272,2.176919594595238e-12,0.006000066027834846,2.244856525951081e-12,0.006000065922739852,2.295925614690673e-12,0.006000065829663592,2.257110398828008e-12,0.006000065747154246,2.136899421283084e-12,0.006000065674084858,2.09931908411867e-12,0.006000065609382151,2.440695946220623e-12,0.00600006555209092,1.238668267058638e-11,0.006000065501359357,1.813174144998593e-09,0.006000065456433297,2.832529231051536e-09
0.006000078054402318,2.222711879890667e-12,0.006000077910912136,2.314102410738038e-12,0.006000077783886614,2.395916685478326e-12,0.006000077671410539,2.369795612852777e-12,0.006000077571718923,2.219914319526356e-12,0.006000077483428636,2.161720244503358e-12,0.006000077405249432,2.499623797626768e-12,0.00600007733602954,1.245194757448186e-11,0.006000077274736317,1.813319229141922e-09,0.006000077220456402,2.832724224041485e-09
0.006000089027201159,2.252260826301806e-12,0.006000088955456067,2.363349303164337e-12,0.006000088891943306,2.476322617375127e-12,0.00600008883570527,2.472687141341636e-12,0.006000090987224496,2.317385867700119e-12,0.006000090879660852,2.235490920415686e-12,0.00600009078441946,2.569172018036076e-12,0.006000090700100624,1.252996781184971e-11,0.006000090625440705,1.813515153718999e-09,0.006000090559323502,2.832993830762702e-09
0.00600009451360058,2.263008376588938e-12,0.006000094477728033,2.382832467421802e-12,0.006000094445971653,2.511632336398736e-12,0.006000094417852635,2.522675930398564e-12,0.006000095493612248,2.351176032499765e-12,0.006000095439830426,2.26126418238862e-12,0.00600009539220973,2.593610387697624e-12,0.006000095350050312,1.255792172080841e-11,0.006000095312720352,1.813591804021714e-09,0.006000095279661751,2.833101605997492e-09
0.0060001,2.271445342376174e-12,0.0060001,2.399012626462898e-12,0.0060001,2.543163836054971e-12,0.0060001,2.57065887361874e-12,0.0060001,2.384727996997344e-12,0.0060001,2.287065838594269e-12,0.0060001,2.618107244640444e-12,0.0060001,1.258610928885242e-11,0.006000099999999999,1.813672417361176e-09,0.0060001,2.833215772471045e-09
0.006000100835416666,2.272516857927101e-12,0.006000100835177266,2.401155540116646e-12,0.006000100834965377,2.547561601188478e-12,0.006000100834777836,2.577671886143545e-12,0.006000100834611845,2.390899288032013e-12,0.006000100834464929,2.291785601953796e-12,0.006000100834334895,2.622546356154924e-12,0.006000100834219804,1.25911910192198e-11,0.006000100834117937,1.813687238823617e-09,0.006000100834027777,2.833236707551367e-09
0.006000101720624255,2.273649767296111e-12,0.006000101721253983,2.403446800070787e-12,0.006000101721801452,2.552311218681215e-12,0.006000101722278648,2.58529033308391e-12,0.006000101664935413,2.397208702235148e-12,0.006000101667265211,2.296545068433373e-12,0.006000101669306736,2.627002225752763e-12,0.006000101671097571,1.259630340047988e-11,0.006000101672670529,1.813702239224536e-09,0.006000101674053713,2.833257943285712e-09
0.006000102901855588,2.275053532813892e-12,0.006000102905829585,2.406310528528752e-12,0.006000102909321295,2.558337355241366e-12,0.006000102912393022,2.595138519189412e-12,0.006000102711089797,2.404988257006879e-12,0.006000102720026057,2.302513350467384e-12,0.006000102727890529,2.632635978977502e-12,0.006000102734815728,1.260279607105368e-11,0.006000102740918817,1.813721497514774e-09,0.006000102746301353,2.833285300634266e-09
0.006000104355809183,2.276673290481178e-12,0.006000104358684783,2.409655153414808e-12,0.006000104361199633,2.565492523776302e-12,0.006000104363402704,2.607020530643032e-12,0.006000104143268694,2.415631228754133e-12,0.00600010415198923,2.310631089316446e-12,0.006000104159663737,2.640252498541371e-12,0.006000104166475807,1.261154503830754e-11,0.006000104172441504,1.813747616722013e-09,0.006000104177703908,2.833322322655858e-09
0.006000106013852493,2.278362876682398e-12,0.006000106015377891,2.413231754943046e-12,0.006000106016689297,2.573353411181834e-12,0.006000106017820696,2.620389158559638e-12,0.006000105763577953,2.427660186185969e-12,0.00600010577253188,2.319813426506966e-12,0.006000105780402755,2.648864677664103e-12,0.006000105787398842,1.262146013574785e-11,0.006000105793508721,1.813777627440182e-09,0.006000105798894602,2.833364951086947e-09
0.006000108111547108,2.280179850358788e-12,0.006000108111532305,2.417309330615653e-12,0.006000108111466414,2.582757073182261e-12,0.006000108111368029,2.636955708129151e-12,0.006000107798665702,2.442712513885672e-12,0.006000107808605298,2.331318081828594e-12,0.006000107817325726,2.659650425301611e-12,0.006000107825067929,1.263391430456132e-11,0.006000107831816299,1.813815989827947e-09,0.006000107837757385,2.833419587869254e-09
0.006000110788179353,2.281661542281195e-12,0.006000110786011694,2.421448615494767e-12,0.006000110784022674,2.593542697003222e-12,0.0060001107822087,2.657257704894394e-12,0.006000110393215514,2.461677409308848e-12,0.006000110404276168,2.345835793935065e-12,0.006000110413964428,2.673247169456599e-12,0.006000110422557848,1.264967677754964e-11,0.00600011043003553,1.813865785033708e-09,0.006000110436611548,2.833490756022185e-09
0.006000114160455488,2.281355174205402e-12,0.006000114155394172,2.42405346027613e-12,0.006000114150822397,2.604285802499621e-12,0.006000114146706037,2.680772530995638e-12,0.006000113658650623,2.484797743717818e-12,0.006000113671050481,2.363589486115386e-12,0.006000113681896373,2.689851287854975e-12,0.006000113691509748,1.26690523006036e-11,0.006000113699861841,1.81392951559199e-09,0.00600011370719994,2.833582335534757e-09
0.006000118326878348,2.276279737857517e-12,0.006000118317700477,2.421708773682758e-12,0.00600011830946014,2.611553795238457e-12,0.006000118302077712,2.705272184028915e-12,0.006000117699566421,2.511465096833456e-12,0.006000117713016678,2.384192747982445e-12,0.006000117724760617,2.709079508391003e-12,0.00600011773516792,1.269174262601207e-11,0.006000117744187275,1.814009207413953e-09,0.006000117752102528,2.833697798336887e-09
0.006000123373643509,2.262247768486511e-12,0.00600012335880539,2.409363271966597e-12,0.006000123345526824,2.609867370986368e-12,0.006000123333663439,2.726613416845784e-12,0.00600012260372228,2.539890455085174e-12,0.006000122617673752,2.406419061121364e-12,0.006000122629824961,2.729758412632341e-12,0.006000122640593304,1.271662340683717e-11,0.006000122649890374,1.814105992557299e-09,0.006000122658036,2.833839680638434e-09
0.006000129394968574,2.235442694224242e-12,0.0060001293726848,2.381869385318419e-12,0.00600012935278415,2.592933853498874e-12,0.006000129335035156,2.739430091372091e-12,0.006000128464270691,2.567425704106919e-12,0.006000128478042733,2.428444941929145e-12,0.006000128489993406,2.750154931109768e-12,0.00600012850058433,1.274199969927833e-11,0.006000128509676714,1.814220554717859e-09,0.006000128517623391,2.834010145943473e-09
0.006000136482330758,2.194591187624297e-12,0.006000136450660781,2.336349077090015e-12,0.006000136422417185,2.555764951973069e-12,0.0060001363972568,2.738359499673051e-12,0.006000135374319079,2.591108526227708e-12,0.006000135387084765,2.448240969393381e-12,0.006000135398097828,2.768345682905359e-12,0.006000135407857624,1.276599225996214e-11,0.006000135416161644,1.814353332085642e-09,0.006000135423390398,2.834211070002868e-09
0.006000144696144767,2.142405528404861e-12,0.006000144653154924,2.27418024380302e-12,0.0060001446148547,2.496869931608235e-12,0.006000144580764173,2.719496832379054e-12,0.006000143400073534,2.608291320082252e-12,0.006000143410758304,2.46400938124285e-12,0.006000143419879708,2.782630443892645e-12,0.00600014342796183,1.278695401449839e-11,0.006000143434725816,1.81450439881666e-09,0.006000143440569413,2.834443584699629e-09
0.006000154044474376,2.085088233630015e-12,0.00600015398825046,2.201227505125247e-12,0.006000153938198888,2.419348473877245e-12,0.006000153893677473,2.681531619013084e-12,0.006000152553869461,2.617194738156308e-12,0.006000152561298856,2.474559834864825e-12,0.006000152567487133,2.79188710507551e-12,0.006000152572967931,1.280382022354634e-11,0.006000152577372964,1.814673263477236e-09,0.006000152581104774,2.834707534950324e-09
0.006000164534551477,2.029737659718997e-12,0.006000164462943275,2.125571960176138e-12,0.006000164399238887,2.329689546258694e-12,0.006000164342604505,2.62571755856164e-12,0.006000162837857956,2.617161341698958e-12,0.006000162840869006,2.479495712033522e-12,0.006000162843091406,2.795741354297101e-12,0.006000162845055472,1.281631530039277e-11,0.006000162846288465,1.814859736983813e-09,0.006000162847186272,2.835002760955499e-09
0.006000176292847709,1.981616316006087e-12,0.006000176202634597,2.054362037366314e-12,0.006000176122428182,2.234993433974982e-12,0.006000176051159972,2.554439909192386e-12,0.006000174352849045,2.608276208447641e-12,0.006000174350362121,2.478983921680534e-12,0.006000174347653341,2.794336985238148e-12,0.00600017434524603,1.282480947467884e-11,0.00600017434254121,1.815065729569984e-09,0.006000174339922714,2.835332107435057e-09
0.006000189619877771,1.943456493596514e-12,0.006000189506263581,1.99256050318416e-12,0.006000189405312234,2.141469035280441e-12,0.006000189315656749,2.470005490874904e-12,0.006000187371005885,2.590641476815676e-12,0.006000187361748479,2.473268834357096e-12,0.006000187352965206,2.787864626362868e-12,0.006000187345175371,1.282992165224788e-11,0.006000187337621072,1.81529627005525e-09,0.006000187330672637,2.83570331664528e-09
0.00600020499524915,1.915994033405455e-12,0.006000204851130036,1.943158737172737e-12,0.006000204723151864,2.054476734639212e-12,0.006000204609554168,2.374519230005948e-12,0.006000202338971679,2.563882540945735e-12,0.006000202321124703,2.462311497147065e-12,0.006000202304631822,2.776209599221587e-12,0.006000202290014034,1.283221563149918e-11,0.006000202276306352,1.815559380418813e-09,0.006000202263864548,2.836129001733872e-09
0.006000223135430771,1.898504411241766e-12,0.006000222950047482,1.907420164269203e-12,0.006000222785534655,1.978679555381083e-12,0.006000222639592831,2.270169761737083e-12,0.006000219924571865,2.526840472908486e-12,0.006000219895352108,2.445555819888412e-12,0.006000219868649292,2.758704971486727e-12,0.006000219844993897,1.283208606303758e-11,0.006000219823141169,1.815866815557557e-09,0.006000219803429815,2.836627900600397e-09
0.006000245132703636,1.889243218333511e-12,0.006000244889011037,1.884991564136644e-12,0.006000244672913844,1.917958142913448e-12,0.006000244481340134,2.159700073059505e-12,0.006000241138028759,2.477175877246576e-12,0.006000241092977851,2.421596569174544e-12,0.006000241052062612,2.733755309734815e-12,0.006000241015833554,1.282967906468136e-11,0.006000240982651578,1.816236104456301e-09,0.006000240952832563,2.837228202096115e-09
0.006000272754656701,1.885872819876633e-12,0.006000272423838821,1.874002747376256e-12,0.006000272130741988,1.87501289236611e-12,0.006000271871121774,2.047082427278827e-12,0.006000267593836256,2.410624367613912e-12,0.006000267525422796,2.387461660213447e-12,0.006000267463537712,2.697997812255392e-12,0.006000267408767638,1.282472451658761e-11,0.006000267358886795,1.816694959828293e-09,0.006000267314176701,2.837974727551155e-09
