/Idpi/MIx/S (vgsp_il=0.4) X,/Idpi/MIx/S (vgsp_il=0.4) Y,/Idpi/MIx/S (vgsp_il=0.4519324) X,/Idpi/MIx/S (vgsp_il=0.4519324) Y,/Idpi/MIx/S (vgsp_il=0.5106072) X,/Idpi/MIx/S (vgsp_il=0.5106072) Y,/Idpi/MIx/S (vgsp_il=0.5768998) X,/Idpi/MIx/S (vgsp_il=0.5768998) Y,/Idpi/MIx/S (vgsp_il=0.6517993) X,/Idpi/MIx/S (vgsp_il=0.6517993) Y,/Idpi/MIx/S (vgsp_il=0.736423) X,/Idpi/MIx/S (vgsp_il=0.736423) Y,/Idpi/MIx/S (vgsp_il=0.8320335) X,/Idpi/MIx/S (vgsp_il=0.8320335) Y,/Idpi/MIx/S (vgsp_il=0.9400572) X,/Idpi/MIx/S (vgsp_il=0.9400572) Y,/Idpi/MIx/S (vgsp_il=1.062106) X,/Idpi/MIx/S (vgsp_il=1.062106) Y,/Idpi/MIx/S (vgsp_il=1.2) X,/Idpi/MIx/S (vgsp_il=1.2) Y
0,1.907383639367682e-12,0,1.908548282402171e-12,0,1.912730993714376e-12,0,1.932200671537656e-12,0,2.046637614955903e-12,0,3.084794412741774e-12,0,2.643514249654983e-11,0,2.104573386144301e-07,0,9.878923136671723e-07,0,1.054995323675094e-06
0.001,1.907384916143847e-12,0.001,1.908548286756797e-12,0.001,1.912731431069932e-12,0.001,1.932200870722739e-12,0.001,2.050489570694053e-12,0.001,3.085055374544388e-12,0.001,2.64603787146306e-11,0.001,2.104573744262815e-07,0.001,9.878924126541173e-07,0.001,1.054995426212098e-06
0.003,1.907384219475541e-12,0.003,1.908548286644481e-12,0.003,1.912731226873954e-12,0.003,1.932200876119769e-12,0.003,2.051057275766635e-12,0.003,3.085249430322395e-12,0.003,2.646103813718328e-11,0.003,2.104574459635459e-07,0.003,9.878926103613447e-07,0.003,1.054995631010276e-06
0.006,1.907384042239236e-12,0.006,1.908548286644038e-12,0.006,1.912731217193973e-12,0.006,1.932200876444889e-12,0.006,2.051205512549533e-12,0.006,3.085443967959044e-12,0.006,2.646200271236515e-11,0.006,2.104575531487894e-07,0.006,9.878929065890278e-07,0.006,1.054995937862471e-06
0.006000000208854167,1.907410451208825e-12,0.006000000208794317,1.908548283380345e-12,0.006000000208741345,1.912731268672481e-12,0.006000000208694459,1.932200876509911e-12,0.006000000208652961,2.051216399970184e-12,0.006000000208616232,3.085444016033438e-12,0.006000000208583724,2.646200271558583e-11,0.006000000208554951,2.104575531487604e-07,0.006000000208529485,9.87892906588571e-07,0.006000000208506944,1.054995937861941e-06
0.0060000006265625,1.907415626074334e-12,0.006000000626382951,1.908548285750731e-12,0.006000000626224034,1.912731276628565e-12,0.006000000626083378,1.932200878204231e-12,0.006000000625958884,2.051216450165791e-12,0.006000000625848696,3.085444026049001e-12,0.006000000625751172,2.646200271336409e-11,0.006000000625664853,2.104575531488409e-07,0.006000000625588454,9.878929065890801e-07,0.006000000625520833,1.054995937862494e-06
0.006000001461979166,1.907414354328042e-12,0.006000001461560218,1.908548290014553e-12,0.006000001461189412,1.912731275214203e-12,0.006000001460861215,1.932200876867427e-12,0.006000001460570729,2.051216430886385e-12,0.006000001460313624,3.085444024739324e-12,0.006000001460086069,2.646200271258601e-11,0.006000001459884658,2.104575531488402e-07,0.006000001459706391,9.878929065890701e-07,0.006000001459548611,1.054995937862503e-06
0.006000002176273923,1.907414023221358e-12,0.006000002175054484,1.908548287948845e-12,0.006000002173974311,1.912731274046401e-12,0.006000002173017579,1.932200877636376e-12,0.006000002172170235,2.05121643142247e-12,0.006000002171419822,3.085444023019146e-12,0.006000002170755289,2.646200271134347e-11,0.006000002170166814,2.104575531488741e-07,0.006000002169645706,9.87892906589096e-07,0.006000002169184255,1.054995937862537e-06
0.006000003096605545,1.907414010777352e-12,0.006000003094193149,1.908548289675859e-12,0.006000003092055955,1.91273127730681e-12,0.006000003090162758,1.932200879442377e-12,0.006000003088485837,2.05121643329456e-12,0.006000003087000602,3.085444025724429e-12,0.006000003085685231,2.646200271482924e-11,0.006000003084520333,2.104575531489193e-07,0.006000003083488736,9.878929065892321e-07,0.006000003082575203,1.054995937862643e-06
0.006000004365631513,1.907414049185668e-12,0.006000004361446544,1.90854832790982e-12,0.006000004357738886,1.912731312485537e-12,0.006000004354454431,1.932200913883082e-12,0.006000004351545118,2.05121646901601e-12,0.006000004348968301,3.085444066009517e-12,0.00600000434668613,2.646200276083069e-11,0.006000004344664987,2.104575531492473e-07,0.006000004342875087,9.878929065900035e-07,0.006000004341289999,1.054995937863512e-06
0.006000006087613326,1.907414586609707e-12,0.00600000608086988,1.908548833919175e-12,0.006000006074895625,1.912731784138798e-12,0.006000006069603346,1.932201378483481e-12,0.006000006064915584,2.051216952983945e-12,0.006000006060763598,3.085444590744652e-12,0.006000006057086386,2.646200336848895e-11,0.006000006053829782,2.104575531536922e-07,0.006000006050945782,9.878929066009582e-07,0.006000006048391799,1.054995937875879e-06
0.006000008348117652,1.90741923512022e-12,0.006000008337863167,1.908553080598671e-12,0.006000008328778718,1.912735748562579e-12,0.006000008320731559,1.932205288317461e-12,0.006000008313603809,2.05122101605644e-12,0.006000008307290867,3.085449005822631e-12,0.006000008301699917,2.646200848171464e-11,0.006000008296748563,2.104575531973234e-07,0.006000008292363781,9.878929067154123e-07,0.006000008288480797,1.054995938005848e-06
0.00600001121184909,1.907444502227321e-12,0.006000011196903908,1.908576140926146e-12,0.006000011183664729,1.912757306541442e-12,0.006000011171937825,1.932226546165354e-12,0.006000011161551205,2.05124310963826e-12,0.006000011152352273,3.085473032273372e-12,0.00600001114420565,2.646203634425165e-11,0.006000011136991184,2.104575534834829e-07,0.006000011130602392,9.878929075098714e-07,0.006000011124944835,1.054995938912535e-06
0.006000014755840866,1.907540491518683e-12,0.00600001473479712,1.908663849305516e-12,0.006000014716156744,1.912839402168879e-12,0.006000014699646544,1.932307510763789e-12,0.006000014685024039,2.051327262040337e-12,0.006000014672074133,3.08556462154323e-12,0.006000014660606035,2.646214271339785e-11,0.006000014650450448,2.10457554829933e-07,0.006000014641457354,9.878929114363616e-07,0.006000014633493716,1.054995943410872e-06
0.006000019071863813,1.907815465760178e-12,0.006000019043037971,1.90891547366643e-12,0.006000019017506,1.913075167030205e-12,0.006000018994893087,1.93254007024391e-12,0.006000018974866642,2.051569012357052e-12,0.006000018957131695,3.085827954710031e-12,0.006000018941426658,2.646244904556699e-11,0.006000018927519465,2.104575597193236e-07,0.00600001891520449,9.878929262997398e-07,0.006000018904299418,1.054995960489476e-06
0.006000024263318298,1.908445412596435e-12,0.006000024224806,1.909492728302969e-12,0.006000024190696587,1.913616512250268e-12,0.006000024160488552,1.933074169650662e-12,0.006000024133736985,2.052124335304033e-12,0.006000024110047377,3.086433366745881e-12,0.00600002408906993,2.646315462911148e-11,0.006000024070494389,2.104575742084533e-07,0.006000024054045867,9.878929718732778e-07,0.006000024039480677,1.054996012974898e-06
0.006000030436023085,1.909653151637706e-12,0.006000030385657411,1.910600851821098e-12,0.006000030341052118,1.91465644627931e-12,0.006000030301550515,1.934100362740325e-12,0.006000030266570111,2.053191523858756e-12,0.006000030235594503,3.087597852931335e-12,0.006000030208165913,2.646451483698709e-11,0.006000030183878375,2.104576106882755e-07,0.006000030162372209,9.878930897589865e-07,0.006000030143328598,1.054996148975791e-06
0.006000037680882176,1.911660003842776e-12,0.006000037616467559,1.912444401779272e-12,0.006000037559422015,1.916387554020455e-12,0.006000037508904985,1.935808770040603e-12,0.006000037464170785,2.054968482974271e-12,0.006000037424558535,3.089538734776476e-12,0.006000037389482643,2.646678825693679e-11,0.006000037358423789,2.104576909687258e-07,0.006000037330921781,9.878933546314751e-07,0.006000037306568748,1.054996454954377e-06
0.006000046044824086,1.914627260411967e-12,0.006000045964400513,1.915173483643238e-12,0.006000045893178882,1.918951305802861e-12,0.006000045830109141,1.938338809369069e-12,0.006000045774258963,2.057600269022664e-12,0.00600004572480271,3.092416483684113e-12,0.0060000456810098,2.647017087346361e-11,0.006000045642232072,2.104578482924526e-07,0.006000045607894723,9.878938818307145e-07,0.006000045577488365,1.054997064583352e-06
0.006000055527615488,1.918621552054361e-12,0.006000055429406639,1.918851588939639e-12,0.006000055342439038,1.922407410815295e-12,0.006000055265407794,1.941748480290373e-12,0.006000055197115928,2.061146681429407e-12,0.00600005513664016,3.096299027520566e-12,0.006000055083088976,2.647475439227602e-11,0.006000055035670571,2.104581271051233e-07,0.006000054993681405,9.878948268801335e-07,0.006000054956498189,1.054998158217074e-06
0.006000066146528272,1.923644385000114e-12,0.006000066027834846,1.92348206362687e-12,0.006000065922739852,1.926757938738828e-12,0.006000065829663592,1.946037429796025e-12,0.006000065747154246,2.065605666813389e-12,0.006000065674084858,3.101186820913513e-12,0.00600006560938215,2.648055523171966e-11,0.00600006555209092,2.10458583170372e-07,0.006000065501359357,9.87896385631659e-07,0.006000065456433297,1.054999963004197e-06
0.006000078054402318,1.929723433959439e-12,0.006000077910912136,1.929092396091725e-12,0.006000077783886614,1.932026323344136e-12,0.006000077671410539,1.951224403412568e-12,0.006000077571718923,2.070993256346093e-12,0.006000077483428636,3.10710014374557e-12,0.006000077405249431,2.648761826886501e-11,0.00600007733602954,2.10459291630618e-07,0.006000077274736317,9.878988217003611e-07,0.006000077220456402,1.055002784546847e-06
0.006000089027201159,1.935594807918501e-12,0.006000088955456067,1.934564905876454e-12,0.006000088891943306,1.937200659433674e-12,0.00600008883570527,1.956344074623975e-12,0.006000090987224496,2.077393333629948e-12,0.006000090879660852,3.114134118405634e-12,0.006000090784419458,2.649608608726455e-11,0.006000090700100624,2.104603632152979e-07,0.006000090625440705,9.879025227927252e-07,0.006000090559323502,1.055007072100205e-06
0.00600009451360058,1.938606874049076e-12,0.006000094477728033,1.937375023012642e-12,0.006000094445971653,1.939855013755567e-12,0.006000094417852635,1.958965069927057e-12,0.006000095493612248,2.079595699655626e-12,0.006000095439830426,3.116587597998096e-12,0.006000095392209729,2.649909199326684e-11,0.006000095350050312,2.104608043506301e-07,0.006000095312720352,9.879040641674239e-07,0.006000095279661751,1.055008872755075e-06
0.0060001,1.941645276245193e-12,0.0060001,1.940211667293498e-12,0.0060001,1.942533726372037e-12,0.0060001,1.96160799429453e-12,0.0060001,2.081810430567702e-12,0.0060001,3.119057168804168e-12,0.0060001,2.650212748882422e-11,0.0060001,2.10461281637195e-07,0.006000099999999999,9.879057346367055e-07,0.0060001,1.055010825492133e-06
0.006000100835416666,1.942110634480141e-12,0.006000100835177266,1.940643384950843e-12,0.006000100834965377,1.942938828429201e-12,0.006000100834777836,1.962005254031472e-12,0.006000100834611845,2.082221845207269e-12,0.006000100834464929,3.119510770558965e-12,0.006000100834334895,2.650268041694785e-11,0.006000100834219804,2.104613716908144e-07,0.006000100834117937,9.879060475507852e-07,0.006000100834027777,1.055011188787064e-06
0.006000101720624255,1.942606621282888e-12,0.006000101721253983,1.94110396004221e-12,0.006000101721801452,1.943370903661358e-12,0.006000101722278648,1.962428655556344e-12,0.006000101664935413,2.082631852608855e-12,0.006000101667265211,3.119963841708033e-12,0.006000101669306737,2.65032345474154e-11,0.006000101671097571,2.104614628289872e-07,0.006000101672670529,9.87906364938927e-07,0.006000101674053713,1.055011557971312e-06
0.006000102901855588,1.943265591715003e-12,0.006000102905829585,1.94171733853824e-12,0.006000102909321295,1.943948062269381e-12,0.006000102912393022,1.962995860973864e-12,0.006000102711089797,2.08314824289556e-12,0.006000102720026057,3.120536629209374e-12,0.006000102727890531,2.650393746145667e-11,0.006000102734815728,2.10461580227993e-07,0.006000102740918817,9.879067747893128e-07,0.006000102746301353,1.055012035673092e-06
0.006000104355809183,1.944077390171518e-12,0.006000104358684783,1.942470247707358e-12,0.006000104361199633,1.944653991033071e-12,0.006000104363402704,1.963687422340495e-12,0.006000104143268694,2.083855238163548e-12,0.00600010415198923,3.121316160560179e-12,0.006000104159663739,2.650488964072357e-11,0.006000104166475807,2.104617412037905e-07,0.006000104172441504,9.879073344719289e-07,0.006000104177703908,1.055012685550026e-06
0.006000106013852493,1.945003858389805e-12,0.006000106015377891,1.943329624611239e-12,0.006000106016689297,1.945459554609555e-12,0.006000106017820696,1.964476215170384e-12,0.006000105763577953,2.084655158531135e-12,0.00600010577253188,3.12219849870201e-12,0.006000105780402758,2.650596892746131e-11,0.006000105787398842,2.104619276463207e-07,0.006000105793508721,9.879079829875299e-07,0.006000105798894602,1.055013438702518e-06
0.006000108111547108,1.946174308801206e-12,0.006000108111532305,1.944415658705434e-12,0.006000108111466414,1.946477390565452e-12,0.006000108111368029,1.965472398718983e-12,0.006000107798665702,2.085657906556225e-12,0.006000107808605298,3.123305142561683e-12,0.00600010781732573,2.650732502824392e-11,0.006000107825067929,2.104621683536008e-07,0.006000107831816299,9.879088207183266e-07,0.006000107837757385,1.055014411806116e-06
0.006000110788179353,1.947654674504114e-12,0.006000110786011694,1.945789685324912e-12,0.006000110784022674,1.947764610387381e-12,0.0060001107822087,1.966731203713144e-12,0.006000110393215514,2.086925260588868e-12,0.006000110404276168,3.12470412622932e-12,0.006000110413964433,2.650904311450032e-11,0.006000110422557848,2.104624853346059e-07,0.00600011043003553,9.879099243738851e-07,0.006000110436611548,1.055015693801067e-06
0.006000114160455488,1.949469516707086e-12,0.006000114155394172,1.947475198607812e-12,0.006000114150822397,1.949342772985979e-12,0.006000114146706037,1.968272657913299e-12,0.006000113658650623,2.088479454427624e-12,0.006000113671050481,3.126420544570914e-12,0.006000113681896379,2.65111586780471e-11,0.006000113691509748,2.104629000015867e-07,0.006000113699861841,9.879113691129632e-07,0.00600011370719994,1.055017372030308e-06
0.006000118326878348,1.951577473581568e-12,0.006000118317700477,1.949434970185703e-12,0.00600011830946014,1.951176117268653e-12,0.006000118302077712,1.970059864504706e-12,0.006000117699566421,2.090292460925352e-12,0.006000117713016678,3.128424344872151e-12,0.006000117724760625,2.651364352967379e-11,0.00600011773516792,2.104634359137919e-07,0.006000117744187275,9.879132379377357e-07,0.006000117752102528,1.055019542778301e-06
0.006000123373643509,1.953860370336818e-12,0.00600012335880539,1.95156126366474e-12,0.006000123345526824,1.95316260580483e-12,0.006000123333663439,1.971990393156722e-12,0.00600012260372228,2.092265751855264e-12,0.006000122617673752,3.130608754848841e-12,0.006000122629824969,2.651638082616862e-11,0.006000122640593304,2.104641170189034e-07,0.006000122649890374,9.879156159182368e-07,0.006000122658036,1.055022304809686e-06
0.006000129394968574,1.956149993297121e-12,0.0060001293726848,1.953700413867045e-12,0.00600012935278415,1.955156977550291e-12,0.006000129335035156,1.973919018794473e-12,0.006000128464270691,2.094251206897279e-12,0.006000128478042733,3.132813245208528e-12,0.006000128489993417,2.651919231414457e-11,0.00600012850058433,2.104649691642632e-07,0.006000128509676714,9.879185952809872e-07,0.006000128517623391,1.055025765241039e-06
0.006000136482330758,1.958265652964692e-12,0.006000136450660781,1.955687194267472e-12,0.006000136422417185,1.957003113038705e-12,0.0060001363972568,1.975689800981212e-12,0.006000135374319079,2.096084385310481e-12,0.006000135387084765,3.13485973866154e-12,0.00600013539809784,2.652187978627724e-11,0.006000135407857624,2.104660177067318e-07,0.006000135416161644,9.879222666448426e-07,0.006000135423390398,1.055030029301187e-06
0.006000144696144767,1.960054828741833e-12,0.006000144653154924,1.957381964058884e-12,0.0060001446148547,1.958569103344979e-12,0.006000144580764173,1.97717100520831e-12,0.006000143400073534,2.097621305881433e-12,0.006000143410758304,3.136592427968187e-12,0.006000143419879722,2.652426965716051e-11,0.00600014342796183,2.104672815869836e-07,0.006000143434725816,9.879266978023851e-07,0.006000143440569413,1.055035175634532e-06
0.006000154044474376,1.96142587139448e-12,0.00600015398825046,1.958700562834833e-12,0.006000153938198888,1.959775484081165e-12,0.006000153893677473,1.978283258522048e-12,0.006000152553869461,2.098769469781766e-12,0.006000152561298856,3.137911324145406e-12,0.006000152567487148,2.652625016542149e-11,0.006000152572967931,2.104687673249192e-07,0.006000152577372964,9.879319124082674e-07,0.006000152581104774,1.055041231631757e-06
0.006000164534551477,1.962362711944457e-12,0.006000164462943275,1.959628204672984e-12,0.006000164399238887,1.96060818925731e-12,0.006000164342604505,1.97901198887751e-12,0.006000162837857956,2.099504493408389e-12,0.006000162840869006,3.138790544142637e-12,0.006000162843091424,2.652779434945556e-11,0.006000162845055472,2.104704753300721e-07,0.006000162846288465,9.879379120328755e-07,0.006000162847186272,1.055048199043744e-06
0.006000176292847709,1.962905531334363e-12,0.006000176202634597,1.960202571129435e-12,0.006000176122428182,1.961102141569551e-12,0.006000176051159972,1.97939000530067e-12,0.006000174352849045,2.099854316475188e-12,0.006000174350362121,3.139261885183593e-12,0.00600017434765336,2.65289469818334e-11,0.006000174345246029,2.104724193234724e-07,0.00600017434254121,9.879447446224898e-07,0.006000174339922714,1.055056133500045e-06
0.006000189619877771,1.963110606517319e-12,0.006000189506263581,1.960477380270264e-12,0.006000189405312234,1.961306656300637e-12,0.006000189315656749,1.97946241824965e-12,0.006000187371005885,2.099862664949054e-12,0.006000187361748479,3.139375674541775e-12,0.006000187352965227,2.652978426322879e-11,0.00600018734517537,2.104746407718652e-07,0.006000187337621072,9.879525554622501e-07,0.006000187330672637,1.05506520356298e-06
0.00600020499524915,1.963025362869447e-12,0.006000204851130036,1.960499490351446e-12,0.006000204723151864,1.961263691626821e-12,0.006000204609554168,1.979264586435933e-12,0.006000202338971679,2.09956270718163e-12,0.006000202321124703,3.139172281736053e-12,0.006000202304631845,2.6530382725007e-11,0.006000202290014032,2.104772107055885e-07,0.006000202276306352,9.879615937624739e-07,0.006000202263864548,1.055075698320032e-06
0.006000223135430771,1.96267962717198e-12,0.006000222950047482,1.960301255044366e-12,0.006000222785534655,1.961000250777708e-12,0.006000222639592831,1.978813390694123e-12,0.006000219924571865,2.098965709761817e-12,0.006000219895352108,3.138670330456174e-12,0.006000219868649318,2.653081044076618e-11,0.006000219844993894,2.104802376918143e-07,0.006000219823141169,9.879722407711568e-07,0.006000219803429815,1.055088059969224e-06
0.006000245132703636,1.962079197366104e-12,0.006000244889011037,1.959895552111445e-12,0.006000244672913844,1.960522845184144e-12,0.006000244481340134,1.978099150050249e-12,0.006000241138028759,2.098050492336991e-12,0.006000241092977851,3.137856458214459e-12,0.006000241052062641,2.653112612101494e-11,0.006000241015833548,2.104838876979621e-07,0.006000240982651578,9.879850796298542e-07,0.006000240952832563,1.055102964762577e-06
0.006000272754656701,1.961192560671943e-12,0.006000272423838821,1.959265557012617e-12,0.006000272130741988,1.959805945178806e-12,0.006000271871121774,1.977068394505139e-12,0.006000267593836256,2.096741521085269e-12,0.006000267525422796,3.13666402515136e-12,0.006000267463537745,2.653137858203754e-11,0.006000267408767627,2.104884268578302e-07,0.006000267358886795,9.880010457999011e-07,0.006000267314176701,1.055121497292912e-06
