/Idpi/MIx/S (vgsp_il=0.4) X,/Idpi/MIx/S (vgsp_il=0.4) Y,/Idpi/MIx/S (vgsp_il=0.4519324) X,/Idpi/MIx/S (vgsp_il=0.4519324) Y,/Idpi/MIx/S (vgsp_il=0.5106072) X,/Idpi/MIx/S (vgsp_il=0.5106072) Y,/Idpi/MIx/S (vgsp_il=0.5768998) X,/Idpi/MIx/S (vgsp_il=0.5768998) Y,/Idpi/MIx/S (vgsp_il=0.6517993) X,/Idpi/MIx/S (vgsp_il=0.6517993) Y,/Idpi/MIx/S (vgsp_il=0.736423) X,/Idpi/MIx/S (vgsp_il=0.736423) Y,/Idpi/MIx/S (vgsp_il=0.8320335) X,/Idpi/MIx/S (vgsp_il=0.8320335) Y,/Idpi/MIx/S (vgsp_il=0.9400572) X,/Idpi/MIx/S (vgsp_il=0.9400572) Y,/Idpi/MIx/S (vgsp_il=1.062106) X,/Idpi/MIx/S (vgsp_il=1.062106) Y,/Idpi/MIx/S (vgsp_il=1.2) X,/Idpi/MIx/S (vgsp_il=1.2) Y
0,1.907383639367682e-12,0,1.908548282404978e-12,0,1.912731209675662e-12,0,1.932200671543484e-12,0,2.051187743175132e-12,0,3.014411824707067e-12,0,2.583087134911167e-11,0,2.104573386147253e-07,0,9.878923121516529e-07,0,1.054995323672037e-06
0.001,1.907384916143791e-12,0.001,1.908548286756497e-12,0.001,1.912731222800327e-12,0.001,1.93220087072289e-12,0.001,2.051187975648705e-12,0.001,3.051334880564361e-12,0.001,2.613717487594e-11,0.001,2.104573744265807e-07,0.001,9.878914826178899e-07,0.001,1.054995426209085e-06
0.003,1.907384219475359e-12,0.003,1.908548286644494e-12,0.003,1.912731222627456e-12,0.003,1.9322008761198e-12,0.003,2.05118805203128e-12,0.003,3.063098418892848e-12,0.003,2.614637618318525e-11,0.003,2.104574459638455e-07,0.003,9.878916192392405e-07,0.003,1.054995631007258e-06
0.006,1.907384042239914e-12,0.006,1.908548286643993e-12,0.006,1.91273122262566e-12,0.006,1.932200876444903e-12,0.006,2.051188073986424e-12,0.006,3.074938594591949e-12,0.006,2.61598366354668e-11,0.006,2.104575531490972e-07,0.006,9.87891916776088e-07,0.006,1.054995937859453e-06
0.006000000208854167,1.907410457084805e-12,0.006000000208794317,1.908548266772887e-12,0.006000000208741345,1.912730919741176e-12,0.006000000208694459,1.932200876593949e-12,0.006000000208652961,2.051188073358155e-12,0.006000000208616232,3.074955407737966e-12,0.006000000208583724,2.615983663796774e-11,0.006000000208554951,2.104575531490589e-07,0.006000000208529485,9.878919167826032e-07,0.006000000208506944,1.054995937859477e-06
0.0060000006265625,1.907415622735771e-12,0.006000000626382951,1.908548293644033e-12,0.006000000626224034,1.912731352411018e-12,0.006000000626083378,1.932200878025118e-12,0.006000000625958884,2.051188081065129e-12,0.006000000625848696,3.074955480027361e-12,0.006000000625751172,2.615983664523107e-11,0.006000000625664853,2.104575531491382e-07,0.006000000625588454,9.878919167827241e-07,0.006000000625520833,1.054995937859529e-06
0.006000001461979166,1.90741435541138e-12,0.006000001461560218,1.908548287378678e-12,0.006000001461189412,1.912731249075265e-12,0.006000001460861215,1.932200876761502e-12,0.006000001460570729,2.051188076269565e-12,0.006000001460313624,3.07495545772931e-12,0.006000001460086069,2.615983664480612e-11,0.006000001459884658,2.104575531491347e-07,0.006000001459706391,9.878919167827173e-07,0.006000001459548611,1.054995937859597e-06
0.006000002176273923,1.907414023239118e-12,0.006000002175054484,1.90854828816586e-12,0.006000002173974311,1.91273122233216e-12,0.006000002173017579,1.93220087650974e-12,0.006000002172170235,2.051188073910667e-12,0.006000002171419822,3.074955458398056e-12,0.006000002170755289,2.615983664398997e-11,0.006000002170166814,2.104575531491711e-07,0.006000002169645706,9.878919167828003e-07,0.006000002169184255,1.054995937859675e-06
0.006000003096605545,1.907414011086962e-12,0.006000003094193149,1.908548289998645e-12,0.006000003092055955,1.912731223584778e-12,0.006000003090162758,1.932200879061445e-12,0.006000003088485837,2.051188076568918e-12,0.006000003087000602,3.074955461492818e-12,0.006000003085685231,2.615983665177692e-11,0.006000003084520333,2.104575531492184e-07,0.006000003083488736,9.878919167828886e-07,0.006000003082575203,1.054995937859803e-06
0.006000004365631513,1.907414049007135e-12,0.006000004361446544,1.908548327897494e-12,0.006000004357738886,1.912731260135511e-12,0.006000004354454431,1.932200914986464e-12,0.006000004351545118,2.051188114690802e-12,0.006000004348968301,3.07495550475661e-12,0.00600000434668613,2.615983670338703e-11,0.006000004344664987,2.104575531495477e-07,0.006000004342875087,9.878919167836455e-07,0.006000004341289999,1.054995937860667e-06
0.006000006087613326,1.907414586580906e-12,0.00600000608086988,1.908548833924312e-12,0.006000006074895625,1.912731731577379e-12,0.006000006069603346,1.932201378862669e-12,0.006000006064915584,2.051188595194655e-12,0.006000006060763598,3.074956034365006e-12,0.006000006057086386,2.615983731782371e-11,0.006000006053829782,2.104575531539913e-07,0.006000006050945782,9.878919167945398e-07,0.006000006048391799,1.054995937873005e-06
0.006000008348117652,1.907419235445255e-12,0.006000008337863167,1.908553080288126e-12,0.006000008328778718,1.912735695909828e-12,0.006000008320731559,1.932205288482382e-12,0.006000008313603809,2.05119266050848e-12,0.006000008307290867,3.07496045652574e-12,0.006000008301699917,2.615984244010483e-11,0.006000008296748563,2.10457553197621e-07,0.006000008292363781,9.878919169089341e-07,0.006000008288480797,1.054995938003015e-06
0.00600001121184909,1.907444502149345e-12,0.006000011196903908,1.908576141082497e-12,0.006000011183664729,1.912757253947826e-12,0.006000011171937825,1.932226546574258e-12,0.006000011161551205,2.051214753025935e-12,0.006000011152352273,3.074984488183636e-12,0.00600001114420565,2.615987030439709e-11,0.006000011136991184,2.10457553483777e-07,0.006000011130602392,9.878919177033132e-07,0.006000011124944835,1.054995938909685e-06
0.006000014755840866,1.90754049163902e-12,0.00600001473479712,1.908663849381995e-12,0.006000014716156744,1.912839350054267e-12,0.006000014699646544,1.932307510764489e-12,0.006000014685024039,2.051298905209573e-12,0.006000014672074133,3.075076085920211e-12,0.006000014660606035,2.615997666174843e-11,0.006000014650450448,2.104575548302282e-07,0.006000014641457354,9.87891921629691e-07,0.006000014633493716,1.054995943408023e-06
0.006000019071863813,1.907815465540874e-12,0.006000019043037971,1.908915473817657e-12,0.006000019017506,1.913075114800081e-12,0.006000018994893087,1.932540070248854e-12,0.006000018974866642,2.051540657607614e-12,0.006000018957131695,3.075339425256693e-12,0.006000018941426658,2.616028292682904e-11,0.006000018927519465,2.104575597196238e-07,0.00600001891520449,9.878919364928911e-07,0.006000018904299418,1.054995960486609e-06
0.006000024263318298,1.90844541260227e-12,0.006000024224806,1.909492728259626e-12,0.006000024190696587,1.913616460085648e-12,0.006000024160488552,1.933074169654046e-12,0.006000024133736985,2.052095981931955e-12,0.006000024110047377,3.075944839698349e-12,0.00600002408906993,2.616098833135905e-11,0.006000024070494389,2.104575742087521e-07,0.006000024054045867,9.878919820662759e-07,0.006000024039480677,1.054996012972033e-06
0.006000030436023085,1.909653151712364e-12,0.006000030385657411,1.91060085184625e-12,0.006000030341052118,1.914656393868611e-12,0.006000030301550515,1.934100362750974e-12,0.006000030266570111,2.053163172385673e-12,0.006000030235594503,3.077109325380922e-12,0.006000030208165913,2.616234816219795e-11,0.006000030183878375,2.104576106885809e-07,0.006000030162372209,9.87892099951752e-07,0.006000030143328598,1.054996148972926e-06
0.006000037680882176,1.911660003827134e-12,0.006000037616467559,1.912444401854175e-12,0.006000037559422015,1.916387501659589e-12,0.006000037508904985,1.935808770106752e-12,0.006000037464170785,2.054940136787099e-12,0.006000037424558535,3.079050208953078e-12,0.006000037389482643,2.61646209037833e-11,0.006000037358423789,2.104576909690264e-07,0.006000037330921781,9.878923648238257e-07,0.006000037306568748,1.054996454951515e-06
0.006000046044824086,1.914627260493481e-12,0.006000045964400513,1.915173483704383e-12,0.006000045893178882,1.918951253525503e-12,0.006000045830109141,1.938338809352653e-12,0.006000045774258963,2.057571931871661e-12,0.00600004572480271,3.081927977149073e-12,0.0060000456810098,2.616800242959682e-11,0.006000045642232072,2.10457848292759e-07,0.006000045607894723,9.878928920224961e-07,0.006000045577488365,1.054997064580495e-06
0.006000055527615488,1.918621552034049e-12,0.006000055429406639,1.918851589159695e-12,0.006000055342439038,1.922407358674874e-12,0.006000055265407794,1.941748480244453e-12,0.006000055197115928,2.061118358414203e-12,0.00600005513664016,3.085810582675399e-12,0.006000055083088975,2.617258434149063e-11,0.006000055035670571,2.104581271054225e-07,0.006000054993681405,9.87893837071017e-07,0.006000054956498189,1.054998158214237e-06
0.006000066146528272,1.923644384915957e-12,0.006000066027834846,1.923482063694621e-12,0.006000065922739852,1.926757886473121e-12,0.006000065829663592,1.94603742977674e-12,0.006000065747154246,2.065577364894866e-12,0.006000065674084858,3.090698515872543e-12,0.006000065609382149,2.61783829494072e-11,0.00600006555209092,2.104585831706719e-07,0.006000065501359357,9.878953958212226e-07,0.006000065456433297,1.054999963001336e-06
0.006000078054402318,1.929723433929304e-12,0.006000077910912136,1.929092396026945e-12,0.006000077783886614,1.932026270901962e-12,0.006000077671410539,1.95122440355498e-12,0.006000077571718923,2.070964985519042e-12,0.006000077483428635,3.096612108385067e-12,0.006000077405249428,2.618544298074995e-11,0.00600007733602954,2.104592916309228e-07,0.006000077274736317,9.878978318879658e-07,0.006000077220456402,1.055002784543995e-06
0.006000089027201159,1.935594808047901e-12,0.006000088955456067,1.934564905872861e-12,0.006000088891943306,1.937200607146719e-12,0.00600008883570527,1.956344074628842e-12,0.006000090987224496,2.077365108456402e-12,0.006000090879660851,3.10364655968416e-12,0.006000090784419453,2.619390677837348e-11,0.006000090700100624,2.104603632155992e-07,0.006000090625440705,9.879015329774986e-07,0.006000090559323502,1.055007072097349e-06
0.00600009451360058,1.938606874119889e-12,0.006000094477728033,1.93737502312332e-12,0.006000094445971653,1.939854960994523e-12,0.006000094417852635,1.958965069927456e-12,0.006000095493612248,2.079567492312712e-12,0.006000095439830425,3.106100249032492e-12,0.006000095392209727,2.619691114947798e-11,0.006000095350050312,2.104608043509312e-07,0.006000095312720352,9.87903074351052e-07,0.006000095279661751,1.055008872752219e-06
0.0060001,1.941645276200853e-12,0.0060001,1.94021166728214e-12,0.0060001,1.942533673686159e-12,0.0060001,1.961607994310501e-12,0.0060001,2.081782242135164e-12,0.0060001,3.108570053727843e-12,0.0060001,2.619994503836562e-11,0.0060001,2.104612816374966e-07,0.006000099999999999,9.879047448190742e-07,0.0060001,1.055010825489266e-06
0.006000100835416666,1.942110634479443e-12,0.006000100835177266,1.940643384984397e-12,0.006000100834965377,1.942938776659623e-12,0.006000100834777836,1.962005253919198e-12,0.006000100834611845,2.082193662091553e-12,0.006000100834464929,3.109023699039385e-12,0.006000100834334895,2.620049766706049e-11,0.006000100834219804,2.104613716911167e-07,0.006000100834117937,9.879050577329612e-07,0.006000100834027777,1.0550111887842e-06
0.006000101720624255,1.942606621476256e-12,0.006000101721253983,1.941103960689865e-12,0.006000101721801452,1.94337085103879e-12,0.006000101722278648,1.962428655556064e-12,0.006000101664935413,2.082603671767053e-12,0.006000101667265211,3.109476820593375e-12,0.006000101669306737,2.620105149289372e-11,0.006000101671097571,2.104614628292941e-07,0.006000101672670529,9.879053751208346e-07,0.006000101674053713,1.055011557968435e-06
0.006000102901855588,1.943265593379187e-12,0.006000102905829585,1.94171733859672e-12,0.006000102909321295,1.943948009171826e-12,0.006000102912393022,1.962995860144885e-12,0.006000102711089797,2.083120067890195e-12,0.006000102720026057,3.110049667767078e-12,0.006000102727890531,2.620175402436643e-11,0.006000102734815728,2.104615802282853e-07,0.006000102740918817,9.879057849709309e-07,0.006000102746301353,1.055012035670235e-06
0.006000104355809183,1.944077390125986e-12,0.006000104358684783,1.942470247769855e-12,0.006000104361199633,1.944653938404657e-12,0.006000104363402704,1.963687422427741e-12,0.006000104143268694,2.083827069322117e-12,0.00600010415198923,3.110829282973475e-12,0.006000104159663739,2.620270567578106e-11,0.006000104166475807,2.104617412041006e-07,0.006000104172441504,9.879063446531336e-07,0.006000104177703908,1.055012685547148e-06
0.006000106013852493,1.945003858382469e-12,0.006000106015377891,1.943329623867543e-12,0.006000106016689297,1.945459501343223e-12,0.006000106017820696,1.964476215200162e-12,0.006000105763577953,2.084626996339335e-12,0.00600010577253188,3.111711718557389e-12,0.006000105780402758,2.620378435783209e-11,0.006000105787398842,2.104619276466234e-07,0.006000105793508721,9.879069931682624e-07,0.006000105798894602,1.055013438699641e-06
0.006000108111547108,1.94617430788826e-12,0.006000108111532305,1.944415658680238e-12,0.006000108111466414,1.946477339381621e-12,0.006000108111368029,1.965472398992045e-12,0.006000107798665702,2.085629755320095e-12,0.006000107808605298,3.112818491600546e-12,0.00600010781732573,2.620513968615339e-11,0.006000107825067929,2.104621683539068e-07,0.006000107831816299,9.879078308984113e-07,0.006000107837757385,1.055014411803263e-06
0.006000110788179353,1.947654674674082e-12,0.006000110786011694,1.945789685393924e-12,0.006000110784022674,1.947764557131557e-12,0.0060001107822087,1.966731203365863e-12,0.006000110393215514,2.086897121625256e-12,0.006000110404276168,3.114217644581482e-12,0.006000110413964433,2.620685677079064e-11,0.006000110422557848,2.104624853349014e-07,0.00600011043003553,9.879089345531658e-07,0.006000110436611548,1.055015693798254e-06
0.006000114160455488,1.949469515904504e-12,0.006000114155394172,1.947475199392621e-12,0.006000114150822397,1.949342719954924e-12,0.006000114146706037,1.968272657872539e-12,0.006000113658650623,2.088451333528531e-12,0.006000113671050481,3.115934295727282e-12,0.006000113681896379,2.620897105619117e-11,0.006000113691509748,2.104629000018882e-07,0.006000113699861841,9.879103792912046e-07,0.00600011370719994,1.055017372027453e-06
0.006000118326878348,1.951577473817826e-12,0.006000118317700477,1.949434970113958e-12,0.00600011830946014,1.951176064509598e-12,0.006000118302077712,1.970059864478688e-12,0.006000117699566421,2.090264361717554e-12,0.006000117713016678,3.117938405975712e-12,0.006000117724760625,2.621145431726819e-11,0.00600011773516792,2.104634359140919e-07,0.006000117744187275,9.879122481146199e-07,0.006000117752102528,1.055019542775429e-06
0.006000123373643509,1.953860370299579e-12,0.00600012335880539,1.951561263779697e-12,0.006000123345526824,1.953162553076813e-12,0.006000123333663439,1.97199039315558e-12,0.00600012260372228,2.092237680798606e-12,0.006000122617673752,3.120123226842746e-12,0.006000122629824969,2.621418969524044e-11,0.006000122640593304,2.104641170192072e-07,0.006000122649890374,9.879146260934244e-07,0.006000122658036,1.055022304806796e-06
0.006000129394968574,1.956149993324698e-12,0.0060001293726848,1.95370041377435e-12,0.00600012935278415,1.955156924397887e-12,0.006000129335035156,1.973919018786215e-12,0.006000128464270691,2.094223169954232e-12,0.006000128478042733,3.122328258790807e-12,0.006000128489993417,2.621699893323361e-11,0.00600012850058433,2.104649691645612e-07,0.006000128509676714,9.87917605453995e-07,0.006000128517623391,1.055025765238137e-06
0.006000136482330758,1.95826565296304e-12,0.006000136450660781,1.955687194336515e-12,0.006000136422417185,1.957003059799507e-12,0.0060001363972568,1.975689800964606e-12,0.006000135374319079,2.096056391146106e-12,0.006000135387084765,3.124375456021989e-12,0.00600013539809784,2.621968382646648e-11,0.006000135407857624,2.104660177070338e-07,0.006000135416161644,9.87921276815229e-07,0.006000135423390398,1.055030029298318e-06
0.006000144696144767,1.960054828719252e-12,0.006000144653154924,1.95738196402139e-12,0.0060001446148547,1.958569049783468e-12,0.006000144580764173,1.977171005214686e-12,0.006000143400073534,2.097593363272378e-12,0.006000143410758304,3.126109039618443e-12,0.006000143419879722,2.622207079967851e-11,0.00600014342796183,2.104672815872808e-07,0.006000143434725816,9.879257079695843e-07,0.006000143440569413,1.055035175631644e-06
0.006000154044474376,1.961425871392495e-12,0.00600015398825046,1.958700562816051e-12,0.006000153938198888,1.959775430642702e-12,0.006000153893677473,1.978283258525333e-12,0.006000152553869461,2.098741588261668e-12,0.006000152561298856,3.127429043330399e-12,0.006000152567487148,2.622404810856e-11,0.006000152572967931,2.104687673252198e-07,0.006000152577372964,9.879309225717223e-07,0.006000152581104774,1.055041231628889e-06
0.006000164534551477,1.962362711889913e-12,0.006000164462943275,1.959628204695776e-12,0.006000164399238887,1.960608135016113e-12,0.006000164342604505,1.979011988866622e-12,0.006000162837857956,2.099476683572338e-12,0.006000162840869005,3.128309600771682e-12,0.006000162843091424,2.622558879820065e-11,0.006000162845055472,2.104704753303718e-07,0.006000162846288465,9.879369221920429e-07,0.006000162847186272,1.055048199040864e-06
0.006000176292847709,1.962905531384234e-12,0.006000176202634597,1.960202570913941e-12,0.006000176122428182,1.961102087474857e-12,0.006000176051159972,1.979390005302364e-12,0.006000174352849045,2.099826590014951e-12,0.00600017435036212,3.128782540074841e-12,0.006000174347653359,2.622673760826472e-11,0.006000174345246029,2.104724193237721e-07,0.00600017434254121,9.879437547767652e-07,0.006000174339922714,1.055056133497168e-06
0.006000189619877771,1.96311060648693e-12,0.006000189506263581,1.960477380162768e-12,0.006000189405312234,1.961306601815049e-12,0.006000189315656749,1.979462418287807e-12,0.006000187371005885,2.099835036297588e-12,0.006000187361748477,3.128898248872652e-12,0.006000187352965224,2.622757064753886e-11,0.00600018734517537,2.104746407721686e-07,0.006000187337621072,9.879515656109895e-07,0.006000187330672637,1.055065203560095e-06
0.00600020499524915,1.963025362875553e-12,0.006000204851130036,1.960499490674635e-12,0.006000204723151864,1.961263636700906e-12,0.006000204609554168,1.979264586423333e-12,0.006000202338971679,2.099535196121826e-12,0.006000202321124699,3.12869719782924e-12,0.006000202304631839,2.622816430338107e-11,0.006000202290014032,2.104772107058908e-07,0.006000202276306352,9.879606039047125e-07,0.006000202263864548,1.055075698317141e-06
0.006000223135430771,1.962679627165599e-12,0.006000222950047482,1.960301255042079e-12,0.006000222785534655,1.961000195518931e-12,0.006000222639592831,1.978813390678853e-12,0.006000219924571865,2.098938343209191e-12,0.006000219895352103,3.128198173355176e-12,0.006000219868649308,2.622858644162183e-11,0.006000219844993894,2.104802376921181e-07,0.006000219823141169,9.879712509058234e-07,0.006000219803429815,1.055088059966341e-06
0.006000245132703636,1.962079197371792e-12,0.006000244889011037,1.959895552013343e-12,0.006000244672913844,1.960522789224162e-12,0.006000244481340134,1.978099150055488e-12,0.006000241138028759,2.098023309859006e-12,0.006000241092977843,3.127388081488487e-12,0.006000241052062624,2.622889546833045e-11,0.006000241015833548,2.104838876982639e-07,0.006000240982651578,9.879840897553449e-07,0.006000240952832563,1.05510296475968e-06
0.006000272754656701,1.961192560660716e-12,0.006000272423838821,1.959265556935633e-12,0.006000272130741988,1.959805888506039e-12,0.006000271871121774,1.977068394502378e-12,0.006000267593836256,2.096714582661756e-12,0.006000267525422784,3.126200756599482e-12,0.006000267463537717,2.622913972634227e-11,0.006000267408767627,2.104884268581345e-07,0.006000267358886795,9.880000559139898e-07,0.006000267314176701,1.055121497290032e-06
