/cix_pulse<0> (vgsp_il=0.4) X,/cix_pulse<0> (vgsp_il=0.4) Y,/cix_pulse<0> (vgsp_il=0.4519324) X,/cix_pulse<0> (vgsp_il=0.4519324) Y,/cix_pulse<0> (vgsp_il=0.5106072) X,/cix_pulse<0> (vgsp_il=0.5106072) Y,/cix_pulse<0> (vgsp_il=0.5768998) X,/cix_pulse<0> (vgsp_il=0.5768998) Y,/cix_pulse<0> (vgsp_il=0.6517993) X,/cix_pulse<0> (vgsp_il=0.6517993) Y,/cix_pulse<0> (vgsp_il=0.736423) X,/cix_pulse<0> (vgsp_il=0.736423) Y,/cix_pulse<0> (vgsp_il=0.8320335) X,/cix_pulse<0> (vgsp_il=0.8320335) Y,/cix_pulse<0> (vgsp_il=0.9400572) X,/cix_pulse<0> (vgsp_il=0.9400572) Y,/cix_pulse<0> (vgsp_il=1.062106) X,/cix_pulse<0> (vgsp_il=1.062106) Y,/cix_pulse<0> (vgsp_il=1.2) X,/cix_pulse<0> (vgsp_il=1.2) Y
0,5.033276842622659e-06,0,5.033276570067709e-06,0,5.033275601316966e-06,0,5.033271163899206e-06,0,5.033245994377103e-06,0,5.033111513536311e-06,0,5.03284994722382e-06,0,5.032668975518326e-06,0,5.03264713213577e-06,0,5.032646561816329e-06
0.001,5.033276842613427e-06,0.001,5.033276570401513e-06,0.001,5.033275601333407e-06,0.001,5.033271163906627e-06,0.001,5.033245994319217e-06,0.001,5.033111513457671e-06,0.001,5.032850667373845e-06,0.001,5.03266897554919e-06,0.001,5.032647132128067e-06,0.001,5.032649930975479e-06
0.003,5.033276842615325e-06,0.003,5.033276570342081e-06,0.003,5.033275601334758e-06,0.003,5.033271163905362e-06,0.003,5.03324599429267e-06,0.003,5.033111513353661e-06,0.003,5.032849859483974e-06,0.003,5.032668975515618e-06,0.003,5.032647132128685e-06,0.003,5.032646802219788e-06
0.006,5.033276842658202e-06,0.006,5.033276570331741e-06,0.006,5.033275601319487e-06,0.006,5.033271163884992e-06,0.006,5.033245994296158e-06,0.006,5.033111513261131e-06,0.006,5.032849807199652e-06,0.006,5.032668975520015e-06,0.006,5.032647132102578e-06,0.006,5.03264635077272e-06
0.006000000208854167,5.033276842656909e-06,0.006000000208794317,5.033276570334194e-06,0.006000000208741345,5.033275601327185e-06,0.006000000208694459,5.033271163881166e-06,0.006000000208652961,5.033245994293972e-06,0.006000000208616232,5.033111513269671e-06,0.006000000208583724,5.032849898371769e-06,0.006000000208554951,5.032668975533755e-06,0.006000000208529485,5.032647132138936e-06,0.006000000208506944,5.032647487145736e-06
0.0060000006265625,5.033276842625787e-06,0.006000000626382951,5.03327657029328e-06,0.006000000626224034,5.033275601337402e-06,0.006000000626083378,5.033271163937738e-06,0.006000000625958884,5.033245994290408e-06,0.006000000625848696,5.033111513275633e-06,0.006000000625751172,5.032850056457415e-06,0.006000000625664853,5.032668975529941e-06,0.006000000625588454,5.032647132188165e-06,0.006000000625520833,5.032649514048754e-06
0.006000001461979166,5.033276842562645e-06,0.006000001461560218,5.033276570358225e-06,0.006000001461189412,5.033275601303492e-06,0.006000001460861215,5.033271164007862e-06,0.006000001460570729,5.033245994317653e-06,0.006000001460313624,5.033111513261804e-06,0.006000001460086069,5.032850285902934e-06,0.006000001459884658,5.032668975487163e-06,0.006000001459706391,5.032647132166147e-06,0.006000001459548611,5.032652532473439e-06
0.006000002176273923,5.033276842486894e-06,0.006000002175054484,5.033276570324319e-06,0.006000002173974311,5.033275601277354e-06,0.006000002173017579,5.033271163977002e-06,0.006000002172170235,5.033245994236786e-06,0.006000002171419822,5.033111513223932e-06,0.006000002170755289,5.032850410281785e-06,0.006000002170166814,5.032668975428011e-06,0.006000002169645706,5.032647132034004e-06,0.006000002169184255,5.032654212517256e-06
0.006000003096605545,5.033276841766554e-06,0.006000003094193149,5.033276569547051e-06,0.006000003092055955,5.033275600493427e-06,0.006000003090162758,5.033271163272789e-06,0.006000003088485837,5.0332459935542e-06,0.006000003087000602,5.033111512431504e-06,0.006000003085685231,5.03285050579914e-06,0.006000003084520333,5.032668974410731e-06,0.006000003083488736,5.03264713085562e-06,0.006000003082575203,5.032655539737336e-06
0.006000004365631513,5.03327682854764e-06,0.006000004361446544,5.033276555895332e-06,0.006000004357738886,5.033275587025597e-06,0.006000004354454431,5.033271150300417e-06,0.006000004351545118,5.03324598065779e-06,0.006000004348968301,5.033111498202942e-06,0.00600000434668613,5.032850555773703e-06,0.006000004344664987,5.03266895627095e-06,0.006000004342875087,5.03264711016548e-06,0.006000004341289999,5.032656442495067e-06
0.006000006087613326,5.033276656388667e-06,0.00600000608086988,5.033276378383047e-06,0.006000006074895625,5.033275410794964e-06,0.006000006069603346,5.033270981810963e-06,0.006000006064915584,5.033245812324268e-06,0.006000006060763598,5.033111313568855e-06,0.006000006057086386,5.032850378910867e-06,0.006000006053829782,5.032668719664086e-06,0.006000006050945782,5.032646839882081e-06,0.006000006048391799,5.032656591579228e-06
0.006000008348117652,5.033275295112135e-06,0.006000008337863167,5.033274973872984e-06,0.006000008328778718,5.033274015835868e-06,0.006000008320731559,5.033269647892409e-06,0.006000008313603809,5.033244478217588e-06,0.006000008307290867,5.033109849380045e-06,0.006000008301699917,5.032848726956028e-06,0.006000008296748563,5.032666841500023e-06,0.006000008292363781,5.032644693055869e-06,0.006000008288480797,5.032654215180792e-06
0.00600001121184909,5.033268679678037e-06,0.006000011196903908,5.033268142286569e-06,0.006000011183664729,5.033267225610817e-06,0.006000011171937825,5.033263150402588e-06,0.006000011161551205,5.033237975735904e-06,0.006000011152352273,5.03310270785359e-06,0.00600001114420565,5.032840625102045e-06,0.006000011136991184,5.032657669745621e-06,0.006000011130602392,5.032634203254855e-06,0.006000011124944835,5.032642006568228e-06
0.006000014755840866,5.033247344521036e-06,0.00600001473479712,5.03324608990195e-06,0.006000014716156744,5.033245289074578e-06,0.006000014699646544,5.033242143977254e-06,0.006000014685024039,5.03321693782379e-06,0.006000014672074133,5.033079586594974e-06,0.006000014660606035,5.032814383473026e-06,0.006000014650450448,5.032627937960899e-06,0.006000014641457354,5.032600175955385e-06,0.006000014633493716,5.032602451756028e-06
0.006000019071863813,5.033198419954605e-06,0.006000019043037971,5.033195474778827e-06,0.006000019017506,5.033194898714834e-06,0.006000018994893087,5.033193852213423e-06,0.006000018974866642,5.033168536339966e-06,0.006000018957131695,5.033026355021621e-06,0.006000018941426658,5.032753935305113e-06,0.006000018927519465,5.032559395769939e-06,0.00600001891520449,5.032521670716202e-06,0.006000018904299418,5.032511242706352e-06
0.006000024263318298,5.033114170791301e-06,0.006000024224806,5.033108240126289e-06,0.006000024190696587,5.033107982510914e-06,0.006000024160488552,5.033110487152918e-06,0.006000024133736985,5.033084914717763e-06,0.006000024110047377,5.032934324435179e-06,0.00600002408906993,5.032649362260874e-06,0.006000024070494389,5.032440725800295e-06,0.006000024054045867,5.032385625658766e-06,0.006000024039480677,5.032353151277382e-06
0.006000030436023085,5.033000217709366e-06,0.006000030385657411,5.032990166934369e-06,0.006000030341052118,5.03299025627821e-06,0.006000030301550515,5.032997478658828e-06,0.006000030266570111,5.032971471130232e-06,0.006000030235594503,5.032809393246514e-06,0.006000030208165913,5.032507315517275e-06,0.006000030183878375,5.032279386912214e-06,0.006000030162372209,5.032200447990957e-06,0.006000030143328598,5.032137897959434e-06
0.006000037680882176,5.032874187177188e-06,0.006000037616467559,5.032859520645931e-06,0.006000037559422015,5.032859914075614e-06,0.006000037508904985,5.032872259181064e-06,0.006000037464170785,5.032845692243511e-06,0.006000037424558535,5.032670811951553e-06,0.006000037389482643,5.03234965672656e-06,0.006000037358423789,5.032100123377726e-06,0.006000037330921781,5.031994369707287e-06,0.006000037306568748,5.031898297878926e-06
0.006000046044824086,5.03275575989082e-06,0.006000045964400513,5.032736744238085e-06,0.006000045893178882,5.032737355707721e-06,0.006000045830109141,5.0327544227496e-06,0.006000045774258963,5.032727315450188e-06,0.00600004572480271,5.032540381205397e-06,0.0060000456810098,5.032201201039028e-06,0.006000045642232072,5.031931091564031e-06,0.006000045607894723,5.031799605577257e-06,0.006000045577488365,5.031671862329492e-06
0.006000055527615488,5.032657348210954e-06,0.006000055429406639,5.032634752947226e-06,0.006000055342439038,5.032635470760468e-06,0.006000055265407794,5.032656375014146e-06,0.006000055197115928,5.032628937808248e-06,0.00600005513664016,5.032432098401043e-06,0.006000055083088976,5.03207792804104e-06,0.006000055035670571,5.031790471224681e-06,0.006000054993681405,5.031637013919154e-06,0.006000054956498189,5.031482941223487e-06
0.006000066146528272,5.032581852002417e-06,0.006000066027834846,5.032556568056742e-06,0.006000065922739852,5.032557243235009e-06,0.006000065829663592,5.032580997468483e-06,0.006000065747154246,5.032553632283905e-06,0.006000065674084858,5.032349494822354e-06,0.006000065609382151,5.031983914956248e-06,0.00600006555209092,5.031682943304353e-06,0.006000065501359357,5.031512013706324e-06,0.006000065456433297,5.031337933696736e-06
0.006000078054402318,5.032526103858874e-06,0.006000077910912136,5.032498875194201e-06,0.006000077783886614,5.032499286959983e-06,0.006000077671410539,5.032525017098103e-06,0.006000077571718923,5.032498306036709e-06,0.006000077483428636,5.03228931777154e-06,0.006000077405249432,5.031915504266059e-06,0.00600007733602954,5.031604385772422e-06,0.006000077274736317,5.031419911773977e-06,0.006000077220456402,5.031231466849698e-06
0.006000089027201159,5.03249195534568e-06,0.006000088955456067,5.032463206767928e-06,0.006000088891943306,5.032462827929424e-06,0.00600008883570527,5.032489410907782e-06,0.006000090987224496,5.032458126851553e-06,0.006000090879660852,5.032246430674868e-06,0.00600009078441946,5.031866883032871e-06,0.006000090700100624,5.031548201865989e-06,0.006000090625440705,5.031353136717843e-06,0.006000090559323502,5.031154821072823e-06
0.00600009451360058,5.032478951949599e-06,0.006000094477728033,5.032449441154099e-06,0.006000094445971653,5.032448317384447e-06,0.006000094417852635,5.032475087107872e-06,0.006000095493612248,5.032447928759647e-06,0.006000095439830426,5.032236580122839e-06,0.00600009539220973,5.031855826724608e-06,0.006000095350050312,5.031535258515037e-06,0.006000095312720352,5.031337415338112e-06,0.006000095279661751,5.031137199816873e-06
0.0060001,5.03246846558786e-06,0.0060001,5.032438540100769e-06,0.0060001,5.032437047313859e-06,0.0060001,5.03246399062477e-06,0.0060001,5.032439951108032e-06,0.0060001,5.032228240666302e-06,0.0060001,5.031846322847571e-06,0.0060001,5.031524037854674e-06,0.006000099999999999,5.031323608869546e-06,0.0060001,5.031121440967425e-06
0.006000100835416666,5.032467062417336e-06,0.006000100835177266,5.032437093517029e-06,0.006000100834965377,5.032435551901948e-06,0.006000100834777836,5.03246250904984e-06,0.006000100834611845,5.032438754896628e-06,0.006000100834464929,5.032226882438965e-06,0.006000100834334895,5.0318447664426e-06,0.006000100834219804,5.031522203594086e-06,0.006000100834117937,5.031321346526784e-06,0.006000100834027777,5.031118832100115e-06
0.006000101720624255,5.032465342017856e-06,0.006000101721253983,5.032435210220758e-06,0.006000101721801452,5.032433440964963e-06,0.006000101722278648,5.032460385110248e-06,0.006000101664935413,5.03243727547055e-06,0.006000101667265211,5.03222555192159e-06,0.006000101669306736,5.03184330945723e-06,0.006000101671097571,5.031520505103785e-06,0.006000101672670529,5.031319267750444e-06,0.006000101674053713,5.031116577878382e-06
0.006000102901855588,5.032463318373551e-06,0.006000102905829585,5.032433077703458e-06,0.006000102909321295,5.03243117152753e-06,0.006000102912393022,5.032458135692444e-06,0.006000102711089797,5.032435574260839e-06,0.006000102720026057,5.032223909681498e-06,0.006000102727890529,5.031841475483578e-06,0.006000102734815728,5.031518348020308e-06,0.006000102740918817,5.03131660532221e-06,0.006000102746301353,5.031113614389068e-06
0.006000104355809183,5.032461124577581e-06,0.006000104358684783,5.032430854219556e-06,0.006000104361199633,5.032428926572033e-06,0.006000104363402704,5.032455944794623e-06,0.006000104143268694,5.032433500073898e-06,0.00600010415198923,5.032221772442053e-06,0.006000104159663737,5.031839064943462e-06,0.006000104166475807,5.031515509008654e-06,0.006000104172441504,5.031313092198202e-06,0.006000104177703908,5.031109640573851e-06
0.006000106013852493,5.032458915283725e-06,0.006000106015377891,5.032428624102817e-06,0.006000106016689297,5.032426673147937e-06,0.006000106017820696,5.032453737983359e-06,0.006000105763577953,5.032431411150534e-06,0.00600010577253188,5.032219618385942e-06,0.006000105780402755,5.031836634247568e-06,0.006000105787398842,5.031512632787384e-06,0.006000105793508721,5.031309500925293e-06,0.006000105798894602,5.031105583495876e-06
0.006000108111547108,5.032457151741684e-06,0.006000108111532305,5.03242683166984e-06,0.006000108111466414,5.032424778909584e-06,0.006000108111368029,5.032451838925653e-06,0.006000107798665702,5.032429642123518e-06,0.006000107808605298,5.032217949260165e-06,0.006000107817325726,5.031834784318867e-06,0.006000107825067929,5.03151039877083e-06,0.006000107831816299,5.031306584082711e-06,0.006000107837757385,5.031102386649179e-06
0.006000110788179353,5.032458990261212e-06,0.006000110786011694,5.03242874880413e-06,0.006000110784022674,5.032426491820998e-06,0.0060001107822087,5.032453357430843e-06,0.006000110393215514,5.032430882060072e-06,0.006000110404276168,5.032219788268373e-06,0.006000110413964428,5.031836977116301e-06,0.006000110422557848,5.031512745172068e-06,0.00600011043003553,5.031308848812775e-06,0.006000110436611548,5.031105331040092e-06
0.006000114160455488,5.03247273493344e-06,0.006000114155394172,5.032443010623362e-06,0.006000114150822397,5.032440453401286e-06,0.006000114146706037,5.032466593810029e-06,0.006000113658650623,5.032442643113713e-06,0.006000113671050481,5.032233419970834e-06,0.006000113681896373,5.031852654375551e-06,0.006000113691509748,5.031530406876244e-06,0.006000113699861841,5.031328605327201e-06,0.00600011370719994,5.031128751681347e-06
0.006000118326878348,5.032511203139354e-06,0.006000118317700477,5.032482940173644e-06,0.00600011830946014,5.032480000071974e-06,0.006000118302077712,5.032504359411312e-06,0.006000117699566421,5.032477376345315e-06,0.006000117713016678,5.032272522569281e-06,0.006000117724760617,5.03189737036661e-06,0.00600011773516792,5.031581046732564e-06,0.006000117744187275,5.031386101779427e-06,0.006000117752102528,5.031196182456121e-06
0.006000123373643509,5.032583923615696e-06,0.00600012335880539,5.032558447686607e-06,0.006000123345526824,5.032555067425363e-06,0.006000123333663439,5.03257620476631e-06,0.00600012260372228,5.032545617602121e-06,0.006000122617673752,5.03234860677183e-06,0.006000122629824961,5.031984169784466e-06,0.006000122640593304,5.031679448771224e-06,0.006000122649890374,5.031498274016445e-06,0.006000122658036,5.031327251247288e-06
0.006000129394968574,5.032687942955623e-06,0.0060001293726848,5.032666492596321e-06,0.00600012935278415,5.032662667991472e-06,0.006000129335035156,5.032679278599187e-06,0.006000128464270691,5.032646369396153e-06,0.006000128478042733,5.032460452503273e-06,0.006000128489993406,5.032111593889123e-06,0.00600012850058433,5.031823921989265e-06,0.006000128509676714,5.031663182323553e-06,0.006000128517623391,5.031519606675567e-06
0.006000136482330758,5.03280726534876e-06,0.006000136450660781,5.032790490407811e-06,0.006000136422417185,5.032786285321652e-06,0.0060001363972568,5.032797737322916e-06,0.006000135374319079,5.03276503369001e-06,0.006000135387084765,5.032591887952174e-06,0.006000135398097828,5.032261199376714e-06,0.006000135407857624,5.031993521267114e-06,0.006000135416161644,5.031856857097545e-06,0.006000135423390398,5.031745300723515e-06
0.006000144696144767,5.032921882087335e-06,0.006000144653154924,5.032909670389644e-06,0.0060001446148547,5.032905200054074e-06,0.006000144580764173,5.032911689161103e-06,0.006000143400073534,5.032881484861402e-06,0.006000143410758304,5.032720710452924e-06,0.006000143419879708,5.032407723278677e-06,0.00600014342796183,5.032159594733013e-06,0.006000143434725816,5.032046528204855e-06,0.006000143440569413,5.031966198335175e-06
0.006000154044474376,5.033017698326179e-06,0.00600015398825046,5.033009378741171e-06,0.006000153938198888,5.033004777102947e-06,0.006000153893677473,5.033007074692647e-06,0.006000152553869461,5.03298040684663e-06,0.006000152561298856,5.03283006098051e-06,0.006000152567487133,5.032532006881436e-06,0.006000152572967931,5.032300432769461e-06,0.006000152577372964,5.032207381083682e-06,0.006000152581104774,5.032153453728872e-06
0.006000164534551477,5.03309017559834e-06,0.006000164462943275,5.033084875612055e-06,0.006000164399238887,5.03308027178054e-06,0.006000164342604505,5.033079336013767e-06,0.006000162837857956,5.03305603740624e-06,0.006000162840869006,5.03291361896761e-06,0.006000162843091406,5.032626877756806e-06,0.006000162845055472,5.032407915761633e-06,0.006000162846288465,5.032330140722463e-06,0.006000162847186272,5.032296303912727e-06
0.006000176292847709,5.033141559626141e-06,0.006000176202634597,5.033138467278754e-06,0.006000176122428182,5.033133973563355e-06,0.006000176051159972,5.03313067920763e-06,0.006000174352849045,5.033109986828061e-06,0.006000174350362121,5.032973189597766e-06,0.006000174347653341,5.032694395114129e-06,0.00600017434524603,5.032484381457818e-06,0.00600017434254121,5.032417480920473e-06,0.006000174339922714,5.032397882165952e-06
0.006000189619877771,5.033176280341972e-06,0.006000189506263581,5.033174731326364e-06,0.006000189405312234,5.033170440471087e-06,0.006000189315656749,5.033165496290314e-06,0.006000187371005885,5.033146622398409e-06,0.006000187361748479,5.033013619211185e-06,0.006000187352965206,5.032740066667862e-06,0.006000187345175371,5.032536070117623e-06,0.006000187337621072,5.032476530737554e-06,0.006000187330672637,5.032466499994452e-06
0.00600020499524915,5.033198517769833e-06,0.006000204851130036,5.033197984748288e-06,0.006000204723151864,5.033193969556685e-06,0.006000204609554168,5.033187931567874e-06,0.006000202338971679,5.033170236632012e-06,0.006000202321124703,5.033039671331442e-06,0.006000202304631822,5.032769298245413e-06,0.006000202290014034,5.032569102595907e-06,0.006000202276306352,5.032514281531712e-06,0.006000202263864548,5.032510304522896e-06
0.006000223135430771,5.03321174555964e-06,0.006000222950047482,5.033211809985742e-06,0.006000222785534655,5.033208124761626e-06,0.006000222639592831,5.03320142855989e-06,0.006000219924571865,5.033184408144218e-06,0.006000219895352108,5.033055313078833e-06,0.006000219868649292,5.032786578301255e-06,0.006000219844993897,5.0325885563634e-06,0.006000219823141169,5.032536531992782e-06,0.006000219803429815,5.032536049216842e-06
0.006000245132703636,5.033218855959866e-06,0.006000244889011037,5.033219184766292e-06,0.006000244672913844,5.033215866503758e-06,0.006000244481340134,5.033208856281344e-06,0.006000241138028759,5.033192101239993e-06,0.006000241092977851,5.033063823475421e-06,0.006000241052062612,5.032795592576727e-06,0.006000241015833554,5.032598592518191e-06,0.006000240982651578,5.03254803436002e-06,0.006000240952832563,5.032549263967002e-06
0.006000272754656701,5.033222303195241e-06,0.006000272423838821,5.033222631554698e-06,0.006000272130741988,5.033219703973596e-06,0.006000271871121774,5.033212658483882e-06,0.006000267593836256,5.033195832541507e-06,0.006000267525422796,5.033067976984566e-06,0.006000267463537712,5.032799415984929e-06,0.006000267408767638,5.032602667613779e-06,0.006000267358886795,5.032552736605126e-06,0.006000267314176701,5.032554536880366e-06
