/Idpi/MIx/S (vgsp_il=0.4) X,/Idpi/MIx/S (vgsp_il=0.4) Y,/Idpi/MIx/S (vgsp_il=0.4519324) X,/Idpi/MIx/S (vgsp_il=0.4519324) Y,/Idpi/MIx/S (vgsp_il=0.5106072) X,/Idpi/MIx/S (vgsp_il=0.5106072) Y,/Idpi/MIx/S (vgsp_il=0.5768998) X,/Idpi/MIx/S (vgsp_il=0.5768998) Y,/Idpi/MIx/S (vgsp_il=0.6517993) X,/Idpi/MIx/S (vgsp_il=0.6517993) Y,/Idpi/MIx/S (vgsp_il=0.736423) X,/Idpi/MIx/S (vgsp_il=0.736423) Y,/Idpi/MIx/S (vgsp_il=0.8320335) X,/Idpi/MIx/S (vgsp_il=0.8320335) Y,/Idpi/MIx/S (vgsp_il=0.9400572) X,/Idpi/MIx/S (vgsp_il=0.9400572) Y,/Idpi/MIx/S (vgsp_il=1.062106) X,/Idpi/MIx/S (vgsp_il=1.062106) Y,/Idpi/MIx/S (vgsp_il=1.2) X,/Idpi/MIx/S (vgsp_il=1.2) Y
0,1.907384159167017e-12,0,1.908548092545887e-12,0,1.912730630817329e-12,0,1.932198423092458e-12,0,2.051174201931936e-12,0,3.085454692168116e-12,0,2.648210848553459e-11,0,2.104479105272779e-07,0,9.878619602183845e-07,0,1.054963615572012e-06
0.001,1.907384161045366e-12,0.001,1.908548096900535e-12,0.001,1.912730644095053e-12,0.001,1.93219848302169e-12,0.001,2.05117443426283e-12,0.001,3.08547911482018e-12,0.001,2.648211776177903e-11,0.001,2.104479463432275e-07,0.001,9.878620592034923e-07,0.001,1.054963717970414e-06
0.003,1.907384160990299e-12,0.003,1.908548096788156e-12,0.003,1.912730643853603e-12,0.003,1.932198485425858e-12,0.003,2.051174510665478e-12,0.003,3.085486768954233e-12,0.003,2.648213578030117e-11,0.003,2.104480178791714e-07,0.003,9.878622569074334e-07,0.003,1.054963922756175e-06
0.006,1.907384160990224e-12,0.006,1.908548096787694e-12,0.006,1.912730643848522e-12,0.006,1.932198485570698e-12,0.006,2.051174532628003e-12,0.006,3.085494473530729e-12,0.006,2.648216213685708e-11,0.006,2.104481250610626e-07,0.006,9.878625531302393e-07,0.006,1.054964229603214e-06
0.006000000208854167,1.907384162055499e-12,0.006000000208794317,1.90854809527108e-12,0.006000000208741345,1.912730639670877e-12,0.006000000208694459,1.93219848379427e-12,0.006000000208652961,2.051174533013195e-12,0.006000000208616232,3.085494467516695e-12,0.006000000208583724,2.648216213721984e-11,0.006000000208554951,2.104481250610655e-07,0.006000000208529485,9.878625531302674e-07,0.006000000208506944,1.054964229603228e-06
0.0060000006265625,1.907384161521638e-12,0.006000000626382951,1.908548096444522e-12,0.006000000626224034,1.912730645430607e-12,0.006000000626083378,1.932198483530872e-12,0.006000000625958884,2.051174536213936e-12,0.006000000625848696,3.085494471013332e-12,0.006000000625751172,2.64821621366724e-11,0.006000000625664853,2.104481250610801e-07,0.006000000625588454,9.8786255313031e-07,0.006000000625520833,1.054964229603283e-06
0.006000001461979166,1.907384157357473e-12,0.006000001461560218,1.908548100351923e-12,0.006000001461189412,1.912730643729844e-12,0.006000001460861215,1.932198489934815e-12,0.006000001460570729,2.051174535041907e-12,0.006000001460313624,3.085494472044948e-12,0.006000001460086069,2.648216213610189e-11,0.006000001459884658,2.104481250611215e-07,0.006000001459706391,9.878625531304127e-07,0.006000001459548611,1.054964229603358e-06
0.006000002176273923,1.907384159320125e-12,0.006000002175054484,1.908548098751531e-12,0.006000002173974311,1.912730643225726e-12,0.006000002173017579,1.932198488332601e-12,0.006000002172170235,2.05117453431634e-12,0.006000002171419822,3.08549447586584e-12,0.006000002170755289,2.648216213664207e-11,0.006000002170166814,2.104481250611371e-07,0.006000002169645706,9.878625531304775e-07,0.006000002169184255,1.054964229603436e-06
0.006000003096605545,1.907384164959936e-12,0.006000003094193149,1.908548100388756e-12,0.006000003092055955,1.912730646072665e-12,0.006000003090162758,1.932198489993732e-12,0.006000003088485837,2.051174532508044e-12,0.006000003087000602,3.085494477890769e-12,0.006000003085685231,2.648216213949097e-11,0.006000003084520333,2.104481250611921e-07,0.006000003083488736,9.878625531305772e-07,0.006000003082575203,1.054964229603559e-06
0.006000004365631513,1.907384206715492e-12,0.006000004361446544,1.908548138059168e-12,0.006000004357738886,1.912730681919299e-12,0.006000004354454431,1.932198524465653e-12,0.006000004351545118,2.051174570758452e-12,0.006000004348968301,3.085494513589592e-12,0.00600000434668613,2.648216218446616e-11,0.006000004344664987,2.104481250615413e-07,0.006000004342875087,9.878625531313576e-07,0.006000004341289999,1.054964229604432e-06
0.006000006087613326,1.907384763782215e-12,0.00600000608086988,1.908548643759991e-12,0.006000006074895625,1.912731152937767e-12,0.006000006069603346,1.932198988670282e-12,0.006000006064915584,2.051175056586866e-12,0.006000006060763598,3.085495039331302e-12,0.006000006057086386,2.648216279129979e-11,0.006000006053829782,2.104481250659671e-07,0.006000006050945782,9.878625531423124e-07,0.006000006048391799,1.054964229616767e-06
0.006000008348117652,1.907389434848697e-12,0.006000008337863167,1.908552890837045e-12,0.006000008328778718,1.912735117512081e-12,0.006000008320731559,1.932202897823807e-12,0.006000008313603809,2.05117911878632e-12,0.006000008307290867,3.085499454563183e-12,0.006000008301699917,2.648216790457337e-11,0.006000008296748563,2.104481251096019e-07,0.006000008292363781,9.878625532568044e-07,0.006000008288480797,1.054964229746778e-06
0.00600001121184909,1.907414732826971e-12,0.006000011196903908,1.908575951313451e-12,0.006000011183664729,1.912756675295802e-12,0.006000011171937825,1.932224154552391e-12,0.006000011161551205,2.051201212244478e-12,0.006000011152352273,3.085523481139214e-12,0.00600001114420565,2.648219576401472e-11,0.006000011136991184,2.104481253957405e-07,0.006000011130602392,9.878625540512347e-07,0.006000011124944835,1.05496423065342e-06
0.006000014755840866,1.90751075999019e-12,0.00600001473479712,1.908663659504205e-12,0.006000014716156744,1.912838771557333e-12,0.006000014699646544,1.932305120093213e-12,0.006000014685024039,2.051285364093934e-12,0.006000014672074133,3.085615070797327e-12,0.006000014660606035,2.648230213667269e-11,0.006000014650450448,2.104481267421733e-07,0.006000014641457354,9.878625579776498e-07,0.006000014633493716,1.054964235151699e-06
0.006000019071863813,1.907785780287238e-12,0.006000019043037971,1.908915283968094e-12,0.006000019017506,1.913074535981076e-12,0.006000018994893087,1.932537679452487e-12,0.006000018974866642,2.051527116240148e-12,0.006000018957131695,3.085878402864743e-12,0.006000018941426658,2.648260847185666e-11,0.006000018927519465,2.104481316314071e-07,0.00600001891520449,9.878625728407516e-07,0.006000018904299418,1.054964252229974e-06
0.006000024263318298,1.908415781707077e-12,0.006000024224806,1.909492538726091e-12,0.006000024190696587,1.913615881763105e-12,0.006000024160488552,1.933071779243549e-12,0.006000024133736985,2.052082440776294e-12,0.006000024110047377,3.086483815097122e-12,0.00600002408906993,2.648331406735649e-11,0.006000024070494389,2.104481461200468e-07,0.006000024054045867,9.878626184134453e-07,0.006000024039480677,1.054964304714464e-06
0.006000030436023085,1.90962358590786e-12,0.006000030385657411,1.910600662123322e-12,0.006000030341052118,1.914655815966179e-12,0.006000030301550515,1.934097972971534e-12,0.006000030266570111,2.05314963304052e-12,0.006000030235594503,3.087648301304907e-12,0.006000030208165913,2.648467429980371e-11,0.006000030183878375,2.104481825986117e-07,0.006000030162372209,9.878627362968993e-07,0.006000030143328598,1.054964440712828e-06
0.006000037680882176,1.911630512972288e-12,0.006000037616467559,1.912444213395479e-12,0.006000037559422015,1.916386924929117e-12,0.006000037508904985,1.935806382151698e-12,0.006000037464170785,2.054926599459094e-12,0.006000037424558535,3.089589182521142e-12,0.006000037389482643,2.648694776516476e-11,0.006000037358423789,2.104482628762572e-07,0.006000037330921781,9.878630011642649e-07,0.006000037306568748,1.054964746685689e-06
0.006000046044824086,1.9145978560287e-12,0.006000045964400513,1.915173296530655e-12,0.006000045893178882,1.918950678435541e-12,0.006000045830109141,1.938336424069446e-12,0.006000045774258963,2.057558398096893e-12,0.00600004572480271,3.092466931631874e-12,0.0060000456810098,2.649033045337948e-11,0.006000045642232072,2.104484201943933e-07,0.006000045607894723,9.878635283531583e-07,0.006000045577488365,1.054965356303017e-06
0.006000055527615488,1.918592245248439e-12,0.006000055429406639,1.918851404514008e-12,0.006000055342439038,1.922406787065595e-12,0.006000055265407794,1.941746099778842e-12,0.006000055197115928,2.061104830291665e-12,0.00600005513664016,3.096349474219241e-12,0.006000055083088976,2.649491407915295e-11,0.006000055035670571,2.10448698997025e-07,0.006000054993681405,9.87864473383842e-07,0.006000054956498189,1.054966449915646e-06
0.006000066146528272,1.92361518633571e-12,0.006000066027834846,1.923481883053262e-12,0.006000065922739852,1.926757320574414e-12,0.006000065829663592,1.946035056994167e-12,0.006000065747154246,2.065563846244378e-12,0.006000065674084858,3.101237266697781e-12,0.00600006560938215,2.650071506649373e-11,0.00600006555209092,2.104491550457006e-07,0.006000065501359357,9.878660321042743e-07,0.006000065456433297,1.054968254667706e-06
0.006000078054402318,1.929694356177638e-12,0.006000077910912136,1.92909222194241e-12,0.006000077783886614,1.932025713598231e-12,0.006000077671410539,1.951222042143166e-12,0.006000077571718923,2.07095148034561e-12,0.006000077483428636,3.107150587835129e-12,0.006000077405249431,2.650777830291687e-11,0.00600007733602954,2.104498634800647e-07,0.006000077274736317,9.878684681240959e-07,0.006000077220456402,1.054971076155309e-06
0.006000089027201159,1.935565841534731e-12,0.006000088955456067,1.934564739512244e-12,0.006000088891943306,1.937200060216608e-12,0.00600008883570527,1.956341727100383e-12,0.006000090987224496,2.077351623007021e-12,0.006000090879660852,3.114184559922858e-12,0.006000090784419458,2.651624638852899e-11,0.006000090700100624,2.104509350253904e-07,0.006000090625440705,9.878721691419558e-07,0.006000090559323502,1.05497536362469e-06
0.00600009451360058,1.938577963571914e-12,0.006000094477728033,1.937374861280726e-12,0.006000094445971653,1.939854420689186e-12,0.006000094417852635,1.958962730538422e-12,0.006000095493612248,2.079554014660988e-12,0.006000095439830426,3.116638038184821e-12,0.006000095392209729,2.651925239696466e-11,0.006000095350050312,2.10451376144479e-07,0.006000095312720352,9.878737104855625e-07,0.006000095279661751,1.054977164244261e-06
0.0060001,1.941616421880563e-12,0.0060001,1.9402115105651e-12,0.0060001,1.942533140158728e-12,0.0060001,1.961605663992299e-12,0.0060001,2.081768773143458e-12,0.0060001,3.119107608008382e-12,0.0060001,2.652228799849323e-11,0.0060001,2.104518534134747e-07,0.006000099999999999,9.878753809210994e-07,0.0060001,1.054979116942958e-06
0.006000100835416666,1.942081787879295e-12,0.006000100835177266,1.940643229187646e-12,0.006000100834965377,1.94293824376675e-12,0.006000100834777836,1.962002924835889e-12,0.006000100834611845,2.082180194212259e-12,0.006000100834464929,3.119561207533862e-12,0.006000100834334895,2.652284094630099e-11,0.006000100834219804,2.104519434637609e-07,0.006000100834117937,9.878756938288653e-07,0.006000100834027777,1.054979480230728e-06
0.006000101720624255,1.942577782871614e-12,0.006000101721253983,1.941103805822001e-12,0.006000101721801452,1.943370318710986e-12,0.006000101722278648,1.962426326768368e-12,0.006000101664935413,2.082590204851989e-12,0.006000101667265211,3.120014283188696e-12,0.006000101669306737,2.65233950969491e-11,0.006000101671097571,2.104520345985839e-07,0.006000101672670529,9.878760112106632e-07,0.006000101674053713,1.054979849407783e-06
0.006000102901855588,1.94323676926587e-12,0.006000102905829585,1.941717184401113e-12,0.006000102909321295,1.943947479062519e-12,0.006000102912393022,1.96299353623103e-12,0.006000102711089797,2.083106604908587e-12,0.006000102720026057,3.120587066531359e-12,0.006000102727890531,2.652409803717181e-11,0.006000102734815728,2.104521519932618e-07,0.006000102740918817,9.878764210526891e-07,0.006000102746301353,1.054980327100184e-06
0.006000104355809183,1.944048579385318e-12,0.006000104358684783,1.942470095323098e-12,0.006000104361199633,1.944653411460743e-12,0.006000104363402704,1.963685098564195e-12,0.006000104143268694,2.08381360899565e-12,0.00600010415198923,3.121366598203582e-12,0.006000104159663739,2.652505025101377e-11,0.006000104166475807,2.104523129631168e-07,0.006000104172441504,9.878769807240582e-07,0.006000104177703908,1.054980976964262e-06
0.006000106013852493,1.944975064363609e-12,0.006000106015377891,1.943329474101689e-12,0.006000106016689297,1.945458974450539e-12,0.006000106017820696,1.964473895078877e-12,0.006000105763577953,2.084613539323041e-12,0.00600010577253188,3.122248936702525e-12,0.006000105780402758,2.65261295791259e-11,0.006000105787398842,2.10452499398763e-07,0.006000105793508721,9.878776292265124e-07,0.006000105798894602,1.054981730102022e-06
0.006000108111547108,1.946145538132043e-12,0.006000108111532305,1.944415510350205e-12,0.006000108111466414,1.946476816735314e-12,0.006000108111368029,1.965470083872345e-12,0.006000107798665702,2.085616301672932e-12,0.006000107808605298,3.123355577800258e-12,0.00600010781732573,2.652748573079763e-11,0.006000107825067929,2.104527400971691e-07,0.006000107831816299,9.878784669404098e-07,0.006000107837757385,1.054982703186476e-06
0.006000110788179353,1.947625930382955e-12,0.006000110786011694,1.945789540325639e-12,0.006000110784022674,1.947764039315788e-12,0.0060001107822087,1.966728891980281e-12,0.006000110393215514,2.086883674873668e-12,0.006000110404276168,3.124754561832865e-12,0.006000110413964433,2.652920388413407e-11,0.006000110422557848,2.104530570664537e-07,0.00600011043003553,9.878795705736691e-07,0.006000110436611548,1.054983985156238e-06
0.006000114160455488,1.949440806539959e-12,0.006000114155394172,1.947475057195587e-12,0.006000114150822397,1.949342206100025e-12,0.006000114146706037,1.968270354432822e-12,0.006000113658650623,2.088437893025824e-12,0.006000113671050481,3.126470978121601e-12,0.006000113681896379,2.653131953130693e-11,0.006000113691509748,2.104534717181112e-07,0.006000113699861841,9.878810152834841e-07,0.00600011370719994,1.054985663352412e-06
0.006000118326878348,1.951548807684801e-12,0.006000118317700477,1.949434833855016e-12,0.00600011830946014,1.95117555840579e-12,0.006000118302077712,1.970057568883598e-12,0.006000117699566421,2.090250931652203e-12,0.006000117713016678,3.128474778271226e-12,0.006000117724760625,2.653380448927906e-11,0.00600011773516792,2.104540076104879e-07,0.006000117744187275,9.87882884070462e-07,0.006000117752102528,1.054987834057684e-06
0.006000123373643509,1.953831757020021e-12,0.00600012335880539,1.951561133643976e-12,0.006000123345526824,1.953162055079066e-12,0.006000123333663439,1.97198810943647e-12,0.00600012260372228,2.092224262405982e-12,0.006000122617673752,3.130659185487217e-12,0.006000122629824969,2.65365419133676e-11,0.006000122640593304,2.104546886903533e-07,0.006000122649890374,9.878852620027721e-07,0.006000122658036,1.054990596034587e-06
0.006000129394968574,1.956121443641251e-12,0.0060001293726848,1.953700291996161e-12,0.00600012935278415,1.955156437539961e-12,0.006000129335035156,1.973916748403486e-12,0.006000128464270691,2.094209767198854e-12,0.006000128478042733,3.13286367247242e-12,0.006000128489993417,2.653935355071156e-11,0.00600012850058433,2.104555408040945e-07,0.006000128509676714,9.878882413050609e-07,0.006000128517623391,1.05499405639764e-06
0.006000136482330758,1.958237178753586e-12,0.006000136450660781,1.955687082332955e-12,0.006000136422417185,1.9570025864869e-12,0.0060001363972568,1.9756875481029e-12,0.006000135374319079,2.096043007217138e-12,0.006000135387084765,3.134910162990771e-12,0.00600013539809784,2.654204119477717e-11,0.006000135407857624,2.104565893075803e-07,0.006000135416161644,9.878919125943291e-07,0.006000135423390398,1.054998320373491e-06
0.006000144696144767,1.960026443312513e-12,0.006000144653154924,1.957381864266103e-12,0.0060001446148547,1.958568592748604e-12,0.006000144580764173,1.977168773084187e-12,0.006000143400073534,2.097580002041912e-12,0.006000143410758304,3.136642847246656e-12,0.006000143419879722,2.654443125832695e-11,0.00600014342796183,2.104578531407802e-07,0.006000143434725816,9.878963436617912e-07,0.006000143440569413,1.055003466605032e-06
0.006000154044474376,1.961397588641922e-12,0.00600015398825046,1.958700477287336e-12,0.006000153938198888,1.959774992841457e-12,0.006000153893677473,1.978281051383604e-12,0.006000152553869461,2.098728254284429e-12,0.006000152561298856,3.137961737920334e-12,0.006000152567487148,2.654641197967149e-11,0.006000152572967931,2.104593388233413e-07,0.006000152577372964,9.879015581615364e-07,0.006000152581104774,1.055009522482318e-06
0.006000164534551477,1.962334546833148e-12,0.006000164462943275,1.959628135830836e-12,0.006000164399238887,1.960607720011414e-12,0.006000164342604505,1.979009810045106e-12,0.006000162837857956,2.099463381114418e-12,0.006000162840869006,3.138840951371866e-12,0.006000162843091424,2.654795639624179e-11,0.006000162845055472,2.104610467647641e-07,0.006000162846288465,9.879075576639418e-07,0.006000162847186272,1.055016489756234e-06
0.006000176292847709,1.962877500695585e-12,0.006000176202634597,1.960202521088354e-12,0.006000176122428182,1.961101698366031e-12,0.006000176051159972,1.979387860512089e-12,0.006000174352849045,2.09981332411669e-12,0.006000174350362121,3.139312283935789e-12,0.00600017434765336,2.654910928306153e-11,0.00600017434524603,2.104629906855881e-07,0.00600017434254121,9.879143901143291e-07,0.006000174339922714,1.0550244240552e-06
0.006000189619877771,1.96308273211981e-12,0.006000189506263581,1.960477352457509e-12,0.006000189405312234,1.961306243226036e-12,0.006000189315656749,1.979460312945492e-12,0.006000187371005885,2.099821813835988e-12,0.006000187361748479,3.139426063752449e-12,0.006000187352965227,2.65499468470801e-11,0.006000187345175371,2.104652120509964e-07,0.006000187337621072,9.879222007949162e-07,0.006000187330672637,1.055033493938218e-06
0.00600020499524915,1.962997673086233e-12,0.006000204851130036,1.960499488954285e-12,0.006000204723151864,1.961263314156502e-12,0.006000204609554168,1.97926252819144e-12,0.006000202338971679,2.099522025462663e-12,0.006000202321124703,3.13922265889683e-12,0.006000202304631845,2.655054562893278e-11,0.006000202290014034,2.104677818887041e-07,0.006000202276306352,9.879312389108596e-07,0.006000202263864548,1.055043988487072e-06
0.006000223135430771,1.962652161776679e-12,0.006000222950047482,1.960301284542952e-12,0.006000222785534655,1.960999916885513e-12,0.006000222639592831,1.978811390441777e-12,0.006000219924571865,2.09892523639292e-12,0.006000219895352108,3.138720693041564e-12,0.006000219868649318,2.655097371604243e-11,0.006000219844993897,2.104708087618373e-07,0.006000219823141169,9.879418857024943e-07,0.006000219803429815,1.055056349891058e-06
0.006000245132703636,1.962052013639704e-12,0.006000244889011037,1.959895620347201e-12,0.006000244672913844,1.960522565476954e-12,0.006000244481340134,1.978097223135169e-12,0.006000241138028759,2.098010284145838e-12,0.006000241092977851,3.137906801888234e-12,0.006000241052062641,2.655128983969998e-11,0.006000241015833554,2.104744586315851e-07,0.006000240982651578,9.87954724299477e-07,0.006000240952832563,1.055071254388712e-06
0.006000272754656701,1.961165744843699e-12,0.006000272423838821,1.959265674633632e-12,0.006000272130741988,1.959805736286388e-12,0.006000271871121774,1.977066564118694e-12,0.006000267593836256,2.096701665062537e-12,0.006000267525422796,3.136714343113973e-12,0.006000267463537746,2.655154284705874e-11,0.006000267408767638,2.104789976218414e-07,0.006000267358886795,9.879706901440971e-07,0.006000267314176701,1.055089786551425e-06
